time	V(faa_in)	V(output)
0.000000000000000e+000	1.097053e-015	1.474701e-004
9.999999960041972e-012	7.848064e-006	1.474701e-004
1.999999992008394e-011	2.092423e-005	1.474701e-004
3.999999984016789e-011	6.901253e-005	1.474701e-004
7.999999968033578e-011	2.569018e-004	1.474701e-004
1.599999993606716e-010	1.006141e-003	1.474701e-004
3.199999987213431e-010	3.984521e-003	1.474701e-004
6.399999974426862e-010	1.442765e-002	1.474701e-004
1.000000000000000e-009	3.074807e-002	1.474701e-004
1.252000001790120e-009	4.593273e-002	1.474701e-004
1.540000003835971e-009	6.292844e-002	1.474701e-004
2.116000007927673e-009	9.580433e-002	1.474701e-004
3.268000016111078e-009	1.573769e-001	1.474701e-004
5.572000032477887e-009	2.657938e-001	1.474701e-004
1.018000006521150e-008	4.362024e-001	1.474701e-004
1.939600013067874e-008	6.560236e-001	1.474701e-004
3.782800026161321e-008	8.613301e-001	1.474701e-004
7.469200052348216e-008	9.811830e-001	1.474701e-004
1.179113969136816e-007	9.998578e-001	1.474701e-004
1.276220308256064e-007	9.993967e-001	1.474701e-004
1.488640425079420e-007	9.998707e-001	1.474701e-004
1.512917009859232e-007	9.998867e-001	1.474701e-004
1.561470179418856e-007	9.999117e-001	1.474701e-004
1.658576518538104e-007	9.999434e-001	1.474701e-004
1.852789196776601e-007	9.999720e-001	1.474701e-004
2.241214553253594e-007	9.999872e-001	1.474701e-004
3.018065266207580e-007	9.999902e-001	1.474701e-004
4.571766692115552e-007	9.999900e-001	1.474701e-004
7.679169543931497e-007	9.999900e-001	1.474701e-004
1.389397524756339e-006	9.999900e-001	1.474701e-004
2.389397524756339e-006	9.999900e-001	1.474701e-004
3.389397524756339e-006	9.999900e-001	1.474703e-004
4.389397524756338e-006	9.999900e-001	1.474711e-004
5.389397524756338e-006	9.999900e-001	1.474737e-004
6.389397524756338e-006	9.999900e-001	1.474790e-004
6.701000000000001e-006	9.999900e-001	1.474820e-004
7.077795049512675e-006	9.999899e-001	1.474868e-004
7.080795049512676e-006	9.999899e-001	1.474868e-004
7.084795049512678e-006	9.999899e-001	1.474869e-004
7.154772842996017e-006	9.999899e-001	1.474880e-004
7.224750636479356e-006	9.999900e-001	1.474893e-004
7.294728429962695e-006	9.999900e-001	1.474906e-004
7.364706223446034e-006	9.999900e-001	1.474919e-004
7.434684016929373e-006	9.999900e-001	1.474934e-004
7.504661810412712e-006	9.999900e-001	1.474949e-004
7.574639603896051e-006	9.999900e-001	1.474965e-004
7.632261386363572e-006	9.999900e-001	1.474979e-004
7.638261386363575e-006	9.999900e-001	1.474980e-004
7.701000000000001e-006	9.999900e-001	1.474996e-004
7.701825000000001e-006	9.999900e-001	1.474997e-004
7.701900000000003e-006	9.999900e-001	1.474997e-004
7.702000000000000e-006	9.999900e-001	1.474997e-004
7.702005848214286e-006	9.999900e-001	1.474997e-004
7.702011696428572e-006	9.999900e-001	1.474997e-004
7.702017544642858e-006	9.999900e-001	1.474997e-004
7.702023392857142e-006	9.999900e-001	1.474997e-004
7.702029241071428e-006	9.999900e-001	1.474997e-004
7.702035089285713e-006	9.999900e-001	1.474997e-004
7.702040937499999e-006	9.999900e-001	1.474997e-004
7.702320937499995e-006	9.999900e-001	1.474997e-004
7.844989374999995e-006	9.999900e-001	1.475035e-004
7.987657812499997e-006	9.999900e-001	1.475079e-004
8.130326249999998e-006	9.999900e-001	1.475130e-004
8.272994687499998e-006	9.999900e-001	1.475186e-004
8.415663125000000e-006	9.999900e-001	1.475249e-004
8.558331562500000e-006	9.999900e-001	1.475318e-004
8.701000000000000e-006	9.999900e-001	1.475392e-004
8.701999999999999e-006	9.999900e-001	1.475393e-004
8.828897142856882e-006	9.999900e-001	1.475467e-004
8.955794285713766e-006	9.999900e-001	1.475550e-004
9.082691428570649e-006	9.999900e-001	1.475640e-004
9.209588571427533e-006	9.999900e-001	1.475739e-004
9.336485714284416e-006	9.999900e-001	1.475845e-004
9.463382857141300e-006	9.999900e-001	1.475959e-004
9.590279999998183e-006	9.999900e-001	1.476081e-004
9.591559999998181e-006	9.999900e-001	1.476082e-004
9.594119999998175e-006	9.999900e-001	1.476085e-004
9.599239999998164e-006	9.999900e-001	1.476090e-004
9.609479999998144e-006	9.999900e-001	1.476100e-004
9.629959999998103e-006	9.999900e-001	1.476122e-004
9.670919999998019e-006	9.999900e-001	1.476166e-004
9.752839999997851e-006	9.999900e-001	1.476258e-004
9.916679999997516e-006	9.999900e-001	1.476463e-004
1.024435999999685e-005	9.999900e-001	1.476964e-004
1.089971999999551e-005	9.999900e-001	1.478382e-004
1.189971999999551e-005	9.999900e-001	1.481715e-004
1.289971999999551e-005	9.999900e-001	1.487021e-004
1.389971999999551e-005	9.999900e-001	1.494752e-004
1.438000000000000e-005	9.999900e-001	1.499507e-004
1.441943999999102e-005	9.999900e-001	1.499961e-004
1.449831999997308e-005	9.999900e-001	1.500938e-004
1.465607999993718e-005	9.999900e-001	1.503008e-004
1.497159999986539e-005	9.999900e-001	1.507377e-004
1.497259999986539e-005	9.999900e-001	1.507392e-004
1.497459999986538e-005	9.999900e-001	1.507422e-004
1.497859999986538e-005	9.999900e-001	1.507481e-004
1.498659999986537e-005	9.999900e-001	1.507601e-004
1.500259999986535e-005	9.999900e-001	1.507842e-004
1.503459999986531e-005	9.999900e-001	1.508329e-004
1.509859999986524e-005	9.999900e-001	1.509327e-004
1.522659999986508e-005	9.999900e-001	1.511363e-004
1.522759999986508e-005	9.999900e-001	1.511379e-004
1.522959999986508e-005	9.999900e-001	1.511412e-004
1.523359999986507e-005	9.999900e-001	1.511477e-004
1.524159999986506e-005	9.999900e-001	1.511609e-004
1.525759999986505e-005	9.999900e-001	1.511874e-004
1.528959999986501e-005	9.999900e-001	1.512408e-004
1.531600000000008e-005	9.999900e-001	1.512852e-004
1.532719999972986e-005	9.999900e-001	1.513042e-004
1.534959999918944e-005	9.999900e-001	1.513423e-004
1.535059999918944e-005	9.999900e-001	1.513441e-004
1.535259999918943e-005	9.999900e-001	1.513475e-004
1.535659999918943e-005	9.999900e-001	1.513544e-004
1.536459999918942e-005	9.999900e-001	1.513681e-004
1.536559999918942e-005	9.999900e-001	1.513698e-004
1.536759999918942e-005	9.999900e-001	1.513733e-004
1.537159999918941e-005	9.999900e-001	1.513802e-004
1.537200000000001e-005	9.999900e-001	1.513809e-004
1.537280000162120e-005	9.999900e-001	1.513822e-004
1.537440000486360e-005	9.999900e-001	1.513850e-004
1.537679999351522e-005	9.999900e-001	1.513892e-004
1.537779999351521e-005	9.999900e-001	1.513909e-004
1.537800000000000e-005	9.999900e-001	1.513912e-004
1.537840001296957e-005	9.999900e-001	1.513919e-004
1.537920003890872e-005	9.999900e-001	1.513933e-004
1.538000000000000e-005	9.999900e-001	1.513947e-004
1.538007999610913e-005	9.999900e-001	1.513949e-004
1.538023998832738e-005	9.999900e-001	1.513951e-004
1.538055997276389e-005	9.999900e-001	1.513957e-004
1.538100000000000e-005	9.999900e-001	1.513964e-004
1.538139602451249e-005	9.999900e-001	1.513971e-004
1.538179204902499e-005	9.999900e-001	1.513978e-004
1.538218807353748e-005	9.999900e-001	1.513985e-004
1.538258409804997e-005	9.999900e-001	1.513992e-004
1.538298012256247e-005	9.999900e-001	1.513999e-004
1.538337614707496e-005	9.999900e-001	1.514006e-004
1.538377217158746e-005	9.999900e-001	1.514013e-004
1.538658834589852e-005	9.999900e-001	1.514061e-004
1.539222069452065e-005	9.999900e-001	1.514159e-004
1.540348539176492e-005	9.999900e-001	1.514356e-004
1.542601478625345e-005	9.999900e-001	1.514753e-004
1.547107357523052e-005	9.999900e-001	1.515552e-004
1.548233827247479e-005	9.999900e-001	1.515754e-004
1.550486766696332e-005	9.999900e-001	1.516160e-004
1.551050001558545e-005	9.999900e-001	1.516262e-004
1.552176471282972e-005	9.999900e-001	1.516467e-004
1.552458088714078e-005	9.999900e-001	1.516519e-004
1.553021323576292e-005	9.999900e-001	1.516622e-004
1.554147793300718e-005	9.999900e-001	1.516828e-004
1.556400732749572e-005	9.999900e-001	1.517245e-004
1.560906611647278e-005	9.999900e-001	1.518091e-004
1.569918369442691e-005	9.999900e-001	1.519834e-004
1.587941885033517e-005	9.999900e-001	1.523537e-004
1.623988916215169e-005	9.999900e-001	1.531889e-004
1.696082978578473e-005	9.999900e-001	1.552150e-004
1.796082978578473e-005	9.999900e-001	1.587955e-004
1.896082978578473e-005	9.999900e-001	1.634581e-004
1.996082978578473e-005	9.999900e-001	1.694819e-004
2.096082978578473e-005	9.999900e-001	1.770891e-004
2.196082978578473e-005	9.999900e-001	1.860521e-004
2.208100000000000e-005	9.999900e-001	1.872629e-004
2.232134042843054e-005	9.999900e-001	1.898796e-004
2.260031914313892e-005	9.999900e-001	1.930100e-004
2.260331914313892e-005	9.999900e-001	1.930448e-004
2.260731914313891e-005	9.999900e-001	1.930914e-004
2.261531914313890e-005	9.999900e-001	1.931848e-004
2.272731914313877e-005	9.999900e-001	1.945100e-004
2.285531914313861e-005	9.999900e-001	1.960484e-004
2.285831914313861e-005	9.999900e-001	1.960849e-004
2.288631914313858e-005	9.999900e-001	1.964276e-004
2.298331914313846e-005	9.999900e-001	1.976269e-004
2.299731914313844e-005	9.999900e-001	1.978019e-004
2.308100000000000e-005	9.999900e-001	1.988559e-004
2.308182500000000e-005	9.999900e-001	1.988664e-004
2.308190000000000e-005	9.999900e-001	1.988674e-004
2.308200000000000e-005	9.999900e-001	1.988686e-004
2.308202299107143e-005	9.999900e-001	1.988689e-004
2.308204598214286e-005	9.999900e-001	1.988692e-004
2.308206897321429e-005	9.999900e-001	1.988695e-004
2.308209196428571e-005	9.999900e-001	1.988698e-004
2.308211495535714e-005	9.999900e-001	1.988701e-004
2.308213794642857e-005	9.999900e-001	1.988704e-004
2.308216093750000e-005	9.999900e-001	1.988707e-004
2.322485223214285e-005	9.999900e-001	2.007051e-004
2.336754352678571e-005	9.999900e-001	2.025860e-004
2.351023482142857e-005	9.999900e-001	2.045134e-004
2.365292611607143e-005	9.999900e-001	2.064874e-004
2.379561741071429e-005	9.999900e-001	2.085078e-004
2.393830870535714e-005	9.999900e-001	2.105747e-004
2.408100000000000e-005	9.999900e-001	2.126882e-004
2.408200000000000e-005	9.999900e-001	2.127032e-004
2.420889714285527e-005	9.999900e-001	2.146350e-004
2.433579428571054e-005	9.999900e-001	2.166036e-004
2.446269142856581e-005	9.999900e-001	2.186091e-004
2.458958857142108e-005	9.999900e-001	2.206514e-004
2.471648571427635e-005	9.999900e-001	2.227305e-004
2.484338285713163e-005	9.999900e-001	2.248464e-004
2.497027999998690e-005	9.999900e-001	2.269992e-004
2.497155999998688e-005	9.999900e-001	2.270212e-004
2.497411999998684e-005	9.999900e-001	2.270652e-004
2.497923999998677e-005	9.999900e-001	2.271533e-004
2.498947999998661e-005	9.999900e-001	2.273297e-004
2.500995999998631e-005	9.999900e-001	2.276835e-004
2.505091999998571e-005	9.999900e-001	2.283951e-004
2.513283999998450e-005	9.999900e-001	2.298343e-004
2.529667999998208e-005	9.999900e-001	2.327768e-004
2.562435999997725e-005	9.999900e-001	2.389225e-004
2.627971999996759e-005	9.999900e-001	2.521424e-004
2.727971999996759e-005	9.999900e-001	2.743275e-004
2.827971999996759e-005	9.999900e-001	2.990435e-004
2.927971999996759e-005	9.999900e-001	3.262231e-004
2.976000000000000e-005	9.999900e-001	3.401505e-004
2.979943999993518e-005	9.999900e-001	3.413404e-004
2.987831999980556e-005	9.999900e-001	3.437645e-004
3.003607999954630e-005	9.999900e-001	3.486826e-004
3.035159999902779e-005	9.999900e-001	3.586502e-004
3.035259999902779e-005	9.999900e-001	3.586822e-004
3.035459999902780e-005	9.999900e-001	3.587465e-004
3.035859999902780e-005	9.999900e-001	3.588754e-004
3.036659999902782e-005	9.999900e-001	3.591332e-004
3.038259999902786e-005	9.999900e-001	3.596495e-004
3.041459999902793e-005	9.999900e-001	3.606852e-004
3.047859999902807e-005	9.999900e-001	3.627682e-004
3.060659999902835e-005	9.999900e-001	3.669563e-004
3.060759999902835e-005	9.999900e-001	3.669891e-004
3.060959999902836e-005	9.999900e-001	3.670551e-004
3.061359999902837e-005	9.999900e-001	3.671870e-004
3.062159999902838e-005	9.999900e-001	3.674510e-004
3.063759999902842e-005	9.999900e-001	3.679798e-004
3.066959999902849e-005	9.999900e-001	3.690395e-004
3.069599999999986e-005	9.999900e-001	3.699154e-004
3.070719999805726e-005	9.999900e-001	3.702879e-004
3.072959999417207e-005	9.999900e-001	3.710337e-004
3.073059999417208e-005	9.999900e-001	3.710671e-004
3.073259999417208e-005	9.999900e-001	3.711337e-004
3.073659999417209e-005	9.999900e-001	3.712672e-004
3.074459999417211e-005	9.999900e-001	3.715341e-004
3.074559999417211e-005	9.999900e-001	3.715675e-004
3.074759999417211e-005	9.999900e-001	3.716343e-004
3.075159999417212e-005	9.999900e-001	3.717679e-004
3.075199999999998e-005	9.999900e-001	3.717813e-004
3.075280001165570e-005	9.999900e-001	3.718080e-004
3.075440003496713e-005	9.999900e-001	3.718615e-004
3.075679995337713e-005	9.999900e-001	3.719417e-004
3.075779995337713e-005	9.999900e-001	3.719751e-004
3.075799999999999e-005	9.999900e-001	3.719818e-004
3.075840009324572e-005	9.999900e-001	3.719951e-004
3.075920027973717e-005	9.999900e-001	3.720219e-004
3.076000000000000e-005	9.999900e-001	3.720486e-004
3.076007997202628e-005	9.999900e-001	3.720513e-004
3.076023991607884e-005	9.999900e-001	3.720567e-004
3.076055980418398e-005	9.999900e-001	3.720674e-004
3.076100000000000e-005	9.999900e-001	3.720821e-004
3.076421342945697e-005	9.999900e-001	3.721895e-004
3.076742685891394e-005	9.999900e-001	3.722970e-004
3.077064028837091e-005	9.999900e-001	3.724046e-004
3.077385371782788e-005	9.999900e-001	3.725122e-004
3.077706714728485e-005	9.999900e-001	3.726198e-004
3.078028057674182e-005	9.999900e-001	3.727275e-004
3.078349400619879e-005	9.999900e-001	3.728352e-004
3.080603203197918e-005	9.999900e-001	3.735917e-004
3.086237709643017e-005	9.999900e-001	3.754879e-004
3.089054962865566e-005	9.999900e-001	3.764399e-004
3.090463589476841e-005	9.999900e-001	3.769168e-004
3.091027040121351e-005	9.999900e-001	3.771078e-004
3.092153941410370e-005	9.999900e-001	3.774901e-004
3.094407743988410e-005	9.999900e-001	3.782562e-004
3.098915349144489e-005	9.999900e-001	3.797944e-004
3.107930559456646e-005	9.999900e-001	3.828945e-004
3.125960980080961e-005	9.999900e-001	3.891902e-004
3.162021821329592e-005	9.999900e-001	4.021693e-004
3.234143503826854e-005	9.999900e-001	4.294573e-004
3.334143503826854e-005	9.999900e-001	4.698985e-004
3.434143503826853e-005	9.999900e-001	5.136708e-004
3.534143503826853e-005	9.999900e-001	5.613638e-004
3.634143503826853e-005	9.999900e-001	6.135792e-004
3.734143503826853e-005	9.999900e-001	6.697709e-004
3.746100000000001e-005	9.999900e-001	6.769046e-004
3.770012992346297e-005	9.999900e-001	6.918162e-004
3.798274015307407e-005	9.999900e-001	7.097796e-004
3.798374015307408e-005	9.999900e-001	7.098442e-004
3.798574015307408e-005	9.999900e-001	7.099744e-004
3.798974015307409e-005	9.999900e-001	7.102352e-004
3.799774015307411e-005	9.999900e-001	7.107571e-004
3.801374015307414e-005	9.999900e-001	7.118029e-004
3.804574015307421e-005	9.999900e-001	7.139027e-004
3.810974015307435e-005	9.999900e-001	7.181352e-004
3.823774015307463e-005	9.999900e-001	7.266623e-004
3.823874015307464e-005	9.999900e-001	7.267293e-004
3.824074015307464e-005	9.999900e-001	7.268640e-004
3.824474015307465e-005	9.999900e-001	7.271335e-004
3.825274015307467e-005	9.999900e-001	7.276731e-004
3.826874015307470e-005	9.999900e-001	7.287543e-004
3.830074015307477e-005	9.999900e-001	7.309256e-004
3.836474015307491e-005	9.999900e-001	7.352847e-004
3.836574015307491e-005	9.999900e-001	7.353530e-004
3.836774015307492e-005	9.999900e-001	7.354901e-004
3.837174015307493e-005	9.999900e-001	7.357642e-004
3.837974015307494e-005	9.999900e-001	7.363131e-004
3.839574015307498e-005	9.999900e-001	7.374132e-004
3.842774015307505e-005	9.999900e-001	7.396175e-004
3.843074015307506e-005	9.999900e-001	7.398247e-004
3.843474015307507e-005	9.999900e-001	7.401013e-004
3.843849155977863e-005	9.999900e-001	7.403607e-004
3.844224296648219e-005	9.999900e-001	7.406203e-004
3.844599437318575e-005	9.999900e-001	7.408800e-004
3.844974577988931e-005	9.999900e-001	7.411398e-004
3.845349718659287e-005	9.999900e-001	7.413998e-004
3.845724859329644e-005	9.999900e-001	7.416599e-004
3.846100000000000e-005	9.999900e-001	7.419202e-004
3.846182500000000e-005	9.999900e-001	7.419775e-004
3.846190000000000e-005	9.999900e-001	7.419827e-004
3.846200000000000e-005	9.999900e-001	7.419896e-004
3.846200125000000e-005	9.999900e-001	7.419897e-004
3.846200156250000e-005	9.999900e-001	7.419898e-004
3.846200218750000e-005	9.999900e-001	7.419898e-004
3.846200343750000e-005	9.999900e-001	7.419899e-004
3.846200593750000e-005	9.999900e-001	7.419901e-004
3.847370808035796e-005	9.999900e-001	7.428031e-004
3.848541022321593e-005	9.999900e-001	7.436178e-004
3.849711236607389e-005	9.999900e-001	7.444342e-004
3.850881450893185e-005	9.999900e-001	7.452522e-004
3.852051665178981e-005	9.999900e-001	7.460720e-004
3.853221879464777e-005	9.999900e-001	7.468935e-004
3.854392093750573e-005	9.999900e-001	7.477166e-004
3.862584093751146e-005	9.999900e-001	7.535287e-004
3.878968093752293e-005	9.999900e-001	7.654258e-004
3.888558366073393e-005	9.999900e-001	7.723948e-004
3.898148638394495e-005	9.999900e-001	7.794879e-004
3.907738910715595e-005	9.999900e-001	7.867051e-004
3.917329183036697e-005	9.999900e-001	7.940464e-004
3.926919455357797e-005	9.999900e-001	8.015118e-004
3.936509727678899e-005	9.999900e-001	8.091013e-004
3.946099999999999e-005	9.999900e-001	8.168150e-004
3.946200000000000e-005	9.999900e-001	8.168960e-004
3.958889714285741e-005	9.999900e-001	8.273321e-004
3.971579428571484e-005	9.999900e-001	8.380207e-004
3.984269142857226e-005	9.999900e-001	8.489619e-004
3.996958857142968e-005	9.999900e-001	8.601556e-004
4.009648571428710e-005	9.999900e-001	8.716019e-004
4.022338285714452e-005	9.999900e-001	8.833007e-004
4.035028000000194e-005	9.999900e-001	8.952520e-004
4.035156000000194e-005	9.999900e-001	8.953749e-004
4.035412000000195e-005	9.999900e-001	8.956208e-004
4.035924000000196e-005	9.999900e-001	8.961132e-004
4.036948000000198e-005	9.999900e-001	8.970998e-004
4.038996000000203e-005	9.999900e-001	8.990809e-004
4.043092000000212e-005	9.999900e-001	9.030753e-004
4.051284000000230e-005	9.999900e-001	9.111962e-004
4.067668000000266e-005	9.999900e-001	9.280008e-004
4.100436000000338e-005	9.999900e-001	9.641646e-004
4.165972000000481e-005	9.999900e-001	1.047400e-003
4.265972000000481e-005	9.999900e-001	1.203608e-003
4.365972000000480e-005	9.999900e-001	1.406995e-003
4.465972000000480e-005	9.999900e-001	1.666822e-003
4.514000000000000e-005	9.999900e-001	1.815427e-003
4.517944000000960e-005	9.999900e-001	1.829062e-003
4.525832000002881e-005	9.999900e-001	1.857862e-003
4.541608000006722e-005	9.999900e-001	1.918108e-003
4.573160000014404e-005	9.999900e-001	2.043643e-003
4.573260000014405e-005	9.999900e-001	2.044055e-003
4.573460000014405e-005	9.999900e-001	2.044898e-003
4.573860000014406e-005	9.999900e-001	2.046586e-003
4.574660000014408e-005	9.999900e-001	2.049970e-003
4.576260000014411e-005	9.999900e-001	2.056767e-003
4.579460000014418e-005	9.999900e-001	2.070483e-003
4.585860000014432e-005	9.999900e-001	2.098407e-003
4.598660000014460e-005	9.999900e-001	2.155186e-003
4.598760000014461e-005	9.999900e-001	2.155636e-003
4.598960000014461e-005	9.999900e-001	2.156545e-003
4.599360000014462e-005	9.999900e-001	2.158364e-003
4.600160000014464e-005	9.999900e-001	2.162011e-003
4.601760000014467e-005	9.999900e-001	2.169337e-003
4.604960000014474e-005	9.999900e-001	2.184078e-003
4.607599999999986e-005	9.999900e-001	2.196315e-003
4.608720000028977e-005	9.999900e-001	2.201542e-003
4.610960000086959e-005	9.999900e-001	2.212042e-003
4.611060000086960e-005	9.999900e-001	2.212512e-003
4.611260000086960e-005	9.999900e-001	2.213454e-003
4.611660000086961e-005	9.999900e-001	2.215340e-003
4.612460000086963e-005	9.999900e-001	2.219116e-003
4.612560000086963e-005	9.999900e-001	2.219588e-003
4.612760000086963e-005	9.999900e-001	2.220534e-003
4.613160000086964e-005	9.999900e-001	2.222428e-003
4.613199999999998e-005	9.999900e-001	2.222617e-003
4.613279999826065e-005	9.999900e-001	2.222996e-003
4.613439999478199e-005	9.999900e-001	2.223755e-003
4.613680000695731e-005	9.999900e-001	2.224893e-003
4.613780000695732e-005	9.999900e-001	2.225367e-003
4.613799999999999e-005	9.999900e-001	2.225462e-003
4.613839998608534e-005	9.999900e-001	2.225652e-003
