time	V(faa_in)	V(output)
0.000000000000000e+000	1.097054e-015	2.103825e-004
2.509027151246098e-012	2.254060e-011	2.103825e-004
5.018054302492196e-012	4.949375e-011	2.103825e-004
7.527081453738293e-012	8.086056e-011	2.103825e-004
1.003610860498439e-011	1.166410e-010	2.103825e-004
1.254513575623049e-011	1.568351e-010	2.103825e-004
1.505416290747659e-011	2.014429e-010	2.103825e-004
1.756319005872268e-011	2.504643e-010	2.103825e-004
2.524643079389038e-011	4.712422e-010	2.103825e-004
4.061291226422578e-011	1.174343e-009	2.103825e-004
7.134587520489658e-011	3.624831e-009	2.103825e-004
1.328118010862382e-010	1.268789e-008	2.103825e-004
2.342721896733460e-010	3.465163e-008	2.103825e-004
3.357325782604539e-010	6.841259e-008	2.103825e-004
4.371929668475618e-010	1.139708e-007	2.103825e-004
5.386533554346696e-010	1.713262e-007	2.103825e-004
6.401137440217775e-010	2.404788e-007	2.103825e-004
7.415741326088854e-010	3.214286e-007	2.103825e-004
8.430345211959930e-010	4.141757e-007	2.103825e-004
8.873558168093261e-010	4.579754e-007	2.103825e-004
9.113574087733338e-010	4.828064e-007	2.103825e-004
9.519968160719845e-010	5.266329e-007	2.103825e-004
1.000000000000000e-009	5.799092e-007	2.103825e-004
1.688391133232397e-009	1.797024e-006	2.103825e-004
2.376782266464795e-009	3.493068e-006	2.103825e-004
3.065173399697192e-009	5.668040e-006	2.103825e-004
3.753564532929590e-009	8.321940e-006	2.103825e-004
4.441955666161987e-009	1.145477e-005	2.103825e-004
5.130346799394384e-009	1.506652e-005	2.103825e-004
5.818737932626780e-009	1.915721e-005	2.103825e-004
8.751337185051824e-009	4.000275e-005	2.103825e-004
1.303310981364382e-008	8.053292e-005	2.103825e-004
1.831194934851584e-008	1.431020e-004	2.103825e-004
2.566352739463672e-008	2.467491e-004	2.103825e-004
3.501407054581496e-008	3.960997e-004	2.103825e-004
4.811375617432893e-008	6.237124e-004	2.103825e-004
6.594521367103232e-008	9.490321e-004	2.103825e-004
9.306632999543981e-008	1.455555e-003	2.103825e-004
1.412578879155317e-007	2.362590e-003	2.103825e-004
1.474318648531208e-007	2.478977e-003	2.103825e-004
1.489753590875181e-007	2.508073e-003	2.103825e-004
1.520623475563126e-007	2.566264e-003	2.103825e-004
1.576031490777827e-007	2.670709e-003	2.103825e-004
1.632243598002803e-007	2.776669e-003	2.103825e-004
1.744667812452753e-007	2.988585e-003	2.103825e-004
1.959088020764641e-007	3.392754e-003	2.103825e-004
2.284101805387369e-007	4.005381e-003	2.103825e-004
2.934129374632825e-007	5.230627e-003	2.103825e-004
4.049359010884164e-007	7.332715e-003	2.103825e-004
5.462918750825625e-007	9.997074e-003	2.103825e-004
7.117330577704065e-007	1.311532e-002	2.103825e-004
8.631838244125157e-007	1.596976e-002	2.103825e-004
1.047965611028408e-006	1.945219e-002	2.103825e-004
1.277766945884023e-006	2.378271e-002	2.103825e-004
1.574062424740110e-006	2.936566e-002	2.103825e-004
1.831867992885284e-006	3.422287e-002	2.103825e-004
1.834867992885285e-006	3.427939e-002	2.103825e-004
1.838867992885285e-006	3.435474e-002	2.103825e-004
1.873260623595783e-006	3.500262e-002	2.103825e-004
1.907653254306282e-006	3.565049e-002	2.103825e-004
1.942045885016780e-006	3.629835e-002	2.103825e-004
1.976438515727279e-006	3.694619e-002	2.103825e-004
2.010831146437777e-006	3.759402e-002	2.103825e-004
2.045223777148275e-006	3.824184e-002	2.103825e-004
2.079616407858774e-006	3.888965e-002	2.103825e-004
2.081616407858774e-006	3.892732e-002	2.103825e-004
2.201000000000000e-006	4.117582e-002	2.103825e-004
2.201795758194886e-006	4.119080e-002	2.103825e-004
2.201894981771234e-006	4.119267e-002	2.103825e-004
2.202000000000000e-006	4.119465e-002	2.103825e-004
2.202000164090983e-006	4.119466e-002	2.103825e-004
2.202000205113728e-006	4.119466e-002	2.103825e-004
2.202000287159220e-006	4.119466e-002	2.103825e-004
2.202000451250202e-006	4.119466e-002	2.103825e-004
2.202000779432167e-006	4.119467e-002	2.103825e-004
2.202001435796097e-006	4.119468e-002	2.103825e-004
2.202002748523956e-006	4.119470e-002	2.103825e-004
2.202010624891114e-006	4.119485e-002	2.103825e-004
2.202777257961110e-006	4.120929e-002	2.103825e-004
2.203543891031107e-006	4.122373e-002	2.103825e-004
2.204310524101103e-006	4.123816e-002	2.103825e-004
2.205077157171100e-006	4.125260e-002	2.103825e-004
2.205843790241097e-006	4.126704e-002	2.103825e-004
2.206610423311093e-006	4.128148e-002	2.103825e-004
2.207377056381090e-006	4.129592e-002	2.103825e-004
2.460709821018689e-006	4.606656e-002	2.103825e-004
2.714042585656288e-006	5.083591e-002	2.103825e-004
2.967375350293888e-006	5.560397e-002	2.103825e-004
3.220708114931487e-006	6.037074e-002	2.103825e-004
3.474040879569087e-006	6.513622e-002	2.103826e-004
3.727373644206686e-006	6.990041e-002	2.103826e-004
3.980706408844285e-006	7.466331e-002	2.103827e-004
4.369365298631108e-006	8.196656e-002	2.103829e-004
4.775429597271446e-006	8.959177e-002	2.103833e-004
5.314361479241839e-006	9.970352e-002	2.103843e-004
5.915467491797452e-006	1.109705e-001	2.103863e-004
6.467290074062702e-006	1.213018e-001	2.103896e-004
6.983586164467163e-006	1.309550e-001	2.103951e-004
7.636820149727267e-006	1.431497e-001	2.104071e-004
8.361578072060743e-006	1.566561e-001	2.104292e-004
8.990979310059929e-006	1.683619e-001	2.104605e-004
9.679277819848076e-006	1.811357e-001	2.105135e-004
1.030951971471723e-005	1.928036e-001	2.105882e-004
1.055115975547191e-005	1.972744e-001	2.106174e-004
1.079279979622659e-005	2.017402e-001	2.106537e-004
1.103443983698127e-005	2.062010e-001	2.106970e-004
1.127607987773596e-005	2.106568e-001	2.107474e-004
1.151771991849064e-005	2.151077e-001	2.108047e-004
1.175935995924532e-005	2.195536e-001	2.108690e-004
1.200100000000000e-005	2.239945e-001	2.109404e-004
1.200200000000000e-005	2.240129e-001	2.109407e-004
1.211742857142857e-005	2.261328e-001	2.109778e-004
1.223285714285714e-005	2.282516e-001	2.110171e-004
1.234828571428571e-005	2.303694e-001	2.110587e-004
1.246371428571429e-005	2.324860e-001	2.111024e-004
1.257914285714286e-005	2.346016e-001	2.111484e-004
1.269457142857143e-005	2.367161e-001	2.111966e-004
1.281000000000000e-005	2.388296e-001	2.112470e-004
1.281010000000000e-005	2.388314e-001	2.112470e-004
1.281030000000000e-005	2.388350e-001	2.112471e-004
1.281100000000000e-005	2.388479e-001	2.112474e-004
1.295048000000031e-005	2.414000e-001	2.113120e-004
1.295112000000031e-005	2.414117e-001	2.113123e-004
1.295240000000031e-005	2.414352e-001	2.113129e-004
1.295445068567690e-005	2.414727e-001	2.113139e-004
1.295655501530007e-005	2.415112e-001	2.113149e-004
1.296058034550385e-005	2.415848e-001	2.113168e-004
1.296863100591142e-005	2.417320e-001	2.113207e-004
1.298473232672654e-005	2.420265e-001	2.113285e-004
1.301693496835679e-005	2.426154e-001	2.113442e-004
1.308134025161730e-005	2.437928e-001	2.113765e-004
1.321015081813830e-005	2.461468e-001	2.114431e-004
1.327730898683401e-005	2.473736e-001	2.114790e-004
1.335805199380724e-005	2.488480e-001	2.115237e-004
1.342983031333243e-005	2.501582e-001	2.115647e-004
1.350628403887954e-005	2.515532e-001	2.116096e-004
1.358885605468121e-005	2.530591e-001	2.116601e-004
1.375400008628456e-005	2.560685e-001	2.117678e-004
1.408296423747527e-005	2.620567e-001	2.120002e-004
1.435307169761857e-005	2.669680e-001	2.122071e-004
1.447078507971340e-005	2.691057e-001	2.123052e-004
1.470621184390306e-005	2.733777e-001	2.125124e-004
1.470721184390306e-005	2.733958e-001	2.125133e-004
1.470921184390306e-005	2.734320e-001	2.125152e-004
1.471321184390306e-005	2.735046e-001	2.125189e-004
1.472121184390307e-005	2.736496e-001	2.125263e-004
1.473721184390307e-005	2.739397e-001	2.125413e-004
1.476921184390309e-005	2.745197e-001	2.125715e-004
1.483321184390312e-005	2.756795e-001	2.126328e-004
1.488299999999994e-005	2.765815e-001	2.126811e-004
1.491142368780637e-005	2.770963e-001	2.127092e-004
1.495415262438714e-005	2.778701e-001	2.127518e-004
1.495515262438714e-005	2.778883e-001	2.127528e-004
1.495715262438714e-005	2.779245e-001	2.127548e-004
1.496115262438714e-005	2.779969e-001	2.127588e-004
1.496915262438714e-005	2.781417e-001	2.127669e-004
1.498515262438715e-005	2.784314e-001	2.127831e-004
1.498615262438715e-005	2.784495e-001	2.127841e-004
1.498815262438715e-005	2.784857e-001	2.127862e-004
1.499215262438716e-005	2.785581e-001	2.127902e-004
1.500015262438716e-005	2.787030e-001	2.127984e-004
1.500115262438716e-005	2.787211e-001	2.127994e-004
1.500315262438716e-005	2.787573e-001	2.128015e-004
1.500715262438716e-005	2.788297e-001	2.128055e-004
1.500815262438716e-005	2.788478e-001	2.128066e-004
1.500900000000000e-005	2.788631e-001	2.128074e-004
1.500930524877433e-005	2.788686e-001	2.128078e-004
1.500991574632299e-005	2.788797e-001	2.128084e-004
1.501100000000000e-005	2.788993e-001	2.128095e-004
1.501110000000000e-005	2.789011e-001	2.128096e-004
1.501130000000000e-005	2.789048e-001	2.128098e-004
1.501182500000000e-005	2.789143e-001	2.128103e-004
1.501190000000000e-005	2.789156e-001	2.128104e-004
1.501200000000000e-005	2.789174e-001	2.128105e-004
1.501200125000000e-005	2.789175e-001	2.128105e-004
1.501200156250000e-005	2.789175e-001	2.128105e-004
1.501200218750000e-005	2.789175e-001	2.128105e-004
1.501200343750000e-005	2.789175e-001	2.128105e-004
1.501200593750000e-005	2.789176e-001	2.128105e-004
1.518323114900266e-005	2.820151e-001	2.129917e-004
1.535445636050532e-005	2.851091e-001	2.131867e-004
1.552568157200798e-005	2.881996e-001	2.133956e-004
1.569690678351064e-005	2.912864e-001	2.136183e-004
1.586813199501330e-005	2.943698e-001	2.138549e-004
1.603935720651596e-005	2.974495e-001	2.141053e-004
1.621058241801862e-005	3.005257e-001	2.143696e-004
1.721058241801863e-005	3.184355e-001	2.161640e-004
1.821058241801863e-005	3.362506e-001	2.183925e-004
1.835978492973021e-005	3.389055e-001	2.187379e-004
1.850898744144179e-005	3.415561e-001	2.191045e-004
1.865818995315337e-005	3.442026e-001	2.194921e-004
1.880739246486495e-005	3.468449e-001	2.199010e-004
1.895659497657653e-005	3.494831e-001	2.203309e-004
1.910579748828812e-005	3.521170e-001	2.207820e-004
1.925499999999970e-005	3.547468e-001	2.212543e-004
1.936142857142831e-005	3.566222e-001	2.215941e-004
1.946785714285693e-005	3.584960e-001	2.219423e-004
1.957428571428554e-005	3.603682e-001	2.222988e-004
1.968071428571416e-005	3.622389e-001	2.226635e-004
1.978714285714277e-005	3.641081e-001	2.230366e-004
1.989357142857139e-005	3.659758e-001	2.234180e-004
2.000000000000000e-005	3.678419e-001	2.238077e-004
2.000030000000000e-005	3.678472e-001	2.238088e-004
2.000060000000000e-005	3.678524e-001	2.238099e-004
2.000100000000000e-005	3.678595e-001	2.238114e-004
2.000172571428572e-005	3.678722e-001	2.238140e-004
2.000245142857143e-005	3.678849e-001	2.238167e-004
2.000317714285715e-005	3.678976e-001	2.238194e-004
2.000390285714286e-005	3.679103e-001	2.238221e-004
2.000462857142858e-005	3.679230e-001	2.238248e-004
2.000535428571429e-005	3.679357e-001	2.238275e-004
2.000608000000001e-005	3.679485e-001	2.238301e-004
2.001120000000002e-005	3.680382e-001	2.238491e-004
2.002144000000005e-005	3.682177e-001	2.238871e-004
2.004160532700149e-005	3.685710e-001	2.239622e-004
2.006632907444464e-005	3.690042e-001	2.240546e-004
2.011471544291037e-005	3.698518e-001	2.242365e-004
2.012654830182254e-005	3.700590e-001	2.242813e-004
2.015021401964688e-005	3.704733e-001	2.243712e-004
2.018422678720775e-005	3.710687e-001	2.245012e-004
2.022655986884304e-005	3.718096e-001	2.246640e-004
2.027049389952424e-005	3.725781e-001	2.248346e-004
2.034620286344111e-005	3.739018e-001	2.251329e-004
2.049073928844856e-005	3.764269e-001	2.257134e-004
2.063642295534541e-005	3.789693e-001	2.263138e-004
2.083486089790362e-005	3.824276e-001	2.271579e-004
2.104019954257349e-005	3.860004e-001	2.280642e-004
2.132529001296456e-005	3.909509e-001	2.293789e-004
2.164840269446766e-005	3.965473e-001	2.309510e-004
2.211077871946937e-005	4.045285e-001	2.333563e-004
2.269784329030772e-005	4.146115e-001	2.366998e-004
2.369784329030772e-005	4.316729e-001	2.430412e-004
2.469884329030772e-005	4.486527e-001	2.499444e-004
2.470084329030772e-005	4.486864e-001	2.499595e-004
2.483215139169233e-005	4.508969e-001	2.509584e-004
2.496345949307694e-005	4.531047e-001	2.519721e-004
2.509476759446155e-005	4.553096e-001	2.530006e-004
2.522607569584617e-005	4.575119e-001	2.540438e-004
2.535738379723078e-005	4.597113e-001	2.551018e-004
2.548869189861539e-005	4.619079e-001	2.561746e-004
2.562000000000000e-005	4.641018e-001	2.572622e-004
2.562010000000000e-005	4.641035e-001	2.572631e-004
2.562030000000000e-005	4.641069e-001	2.572647e-004
2.562100000000000e-005	4.641185e-001	2.572706e-004
2.581566832594218e-005	4.673638e-001	2.589209e-004
2.601033665188436e-005	4.706034e-001	2.606001e-004
2.620500497782655e-005	4.738371e-001	2.623082e-004
2.639967330376873e-005	4.770650e-001	2.640452e-004
2.659434162971091e-005	4.802872e-001	2.658110e-004
2.678900995565309e-005	4.835036e-001	2.676058e-004
2.698367828159528e-005	4.867142e-001	2.694294e-004
2.710286593916172e-005	4.886756e-001	2.705663e-004
2.722205359672817e-005	4.906345e-001	2.717148e-004
2.734124125429461e-005	4.925909e-001	2.728747e-004
2.746042891186106e-005	4.945448e-001	2.740460e-004
2.757961656942750e-005	4.964963e-001	2.752288e-004
2.769880422699395e-005	4.984452e-001	2.764230e-004
2.781799188456040e-005	5.003916e-001	2.776287e-004
2.781901623087924e-005	5.004083e-001	2.776391e-004
2.781924346318846e-005	5.004120e-001	2.776414e-004
2.782100000000000e-005	5.004407e-001	2.776593e-004
2.782182894544351e-005	5.004542e-001	2.776677e-004
2.782190225453914e-005	5.004554e-001	2.776685e-004
2.782200000000000e-005	5.004570e-001	2.776695e-004
2.782200152727282e-005	5.004570e-001	2.776695e-004
2.782200336000021e-005	5.004570e-001	2.776695e-004
2.782201069090978e-005	5.004572e-001	2.776696e-004
2.782202046545586e-005	5.004573e-001	2.776697e-004
2.812453957538508e-005	5.053820e-001	2.808021e-004
2.842705868531430e-005	5.102892e-001	2.840010e-004
2.872957779524352e-005	5.151790e-001	2.872662e-004
2.903209690517274e-005	5.200514e-001	2.905979e-004
2.933461601510196e-005	5.249064e-001	2.939960e-004
2.963713512503117e-005	5.297439e-001	2.974605e-004
2.993965423496039e-005	5.345641e-001	3.009914e-004
3.093965423496039e-005	5.504378e-001	3.128324e-004
3.136907459023770e-005	5.571787e-001	3.181450e-004
3.145934964877517e-005	5.585914e-001	3.192737e-004
3.154962470731264e-005	5.600025e-001	3.204064e-004
3.163989976585011e-005	5.614118e-001	3.215432e-004
3.173017482438759e-005	5.628194e-001	3.226840e-004
3.182044988292506e-005	5.642252e-001	3.238288e-004
3.191072494146253e-005	5.656293e-001	3.249776e-004
3.200100000000000e-005	5.670317e-001	3.261305e-004
3.200200000000000e-005	5.670472e-001	3.261433e-004
3.213765635292099e-005	5.691507e-001	3.278843e-004
3.227331270584198e-005	5.712507e-001	3.296316e-004
3.240896905876297e-005	5.733472e-001	3.313854e-004
3.254462541168395e-005	5.754403e-001	3.331455e-004
3.268028176460494e-005	5.775300e-001	3.349121e-004
3.281593811752593e-005	5.796162e-001	3.366851e-004
3.295159447044692e-005	5.816989e-001	3.384645e-004
3.295202763536168e-005	5.817055e-001	3.384702e-004
3.295271525199246e-005	5.817161e-001	3.384792e-004
3.295287581293083e-005	5.817185e-001	3.384813e-004
3.295305312831689e-005	5.817212e-001	3.384837e-004
3.295328107935402e-005	5.817248e-001	3.384867e-004
3.295352738617067e-005	5.817285e-001	3.384899e-004
3.295390081703317e-005	5.817342e-001	3.384948e-004
3.295437886872344e-005	5.817416e-001	3.385011e-004
3.295522417062602e-005	5.817545e-001	3.385122e-004
3.295686250771249e-005	5.817797e-001	3.385337e-004
3.296013918188543e-005	5.818299e-001	3.385768e-004
3.296669253023132e-005	5.819303e-001	3.386630e-004
3.297979922692310e-005	5.821313e-001	3.388354e-004
3.300601262030667e-005	5.825329e-001	3.391803e-004
3.305843940707380e-005	5.833356e-001	3.398710e-004
3.316329298060805e-005	5.849397e-001	3.412543e-004
3.322953142672177e-005	5.859520e-001	3.421295e-004
3.328982444697090e-005	5.868726e-001	3.429276e-004
3.336921465485247e-005	5.880836e-001	3.439798e-004
3.342333525861218e-005	5.889083e-001	3.446981e-004
3.350226213181005e-005	5.901099e-001	3.457471e-004
3.358997240095390e-005	5.914434e-001	3.469150e-004
3.376539293924162e-005	5.941039e-001	3.492575e-004
3.411623401581704e-005	5.994039e-001	3.539609e-004
3.463401714261150e-005	6.071781e-001	3.609330e-004
3.531487146396442e-005	6.173137e-001	3.701297e-004
3.611826436815525e-005	6.291407e-001	3.809705e-004
3.711826436815525e-005	6.437060e-001	3.944023e-004
3.743000000000000e-005	6.482025e-001	3.985564e-004
3.780652873631050e-005	6.535971e-001	4.035392e-004
3.780752873631050e-005	6.536114e-001	4.035524e-004
3.780952873631050e-005	6.536400e-001	4.035787e-004
3.781352873631051e-005	6.536970e-001	4.036313e-004
3.782152873631053e-005	6.538112e-001	4.037366e-004
3.783752873631056e-005	6.540393e-001	4.039470e-004
3.786952873631063e-005	6.544954e-001	4.043674e-004
3.793352873631077e-005	6.554066e-001	4.052071e-004
3.806152873631106e-005	6.572266e-001	4.068828e-004
3.817399999999944e-005	6.588235e-001	4.083520e-004
3.820505747262324e-005	6.592639e-001	4.087568e-004
3.826717241787083e-005	6.601438e-001	4.095650e-004
3.830577010950481e-005	6.606901e-001	4.100665e-004
3.835280461673205e-005	6.613555e-001	4.106771e-004
3.835380461673205e-005	6.613696e-001	4.106901e-004
3.835580461673206e-005	6.613979e-001	4.107160e-004
3.835980461673206e-005	6.614544e-001	4.107679e-004
3.836780461673208e-005	6.615676e-001	4.108716e-004
3.838380461673212e-005	6.617936e-001	4.110789e-004
3.839799999999993e-005	6.619942e-001	4.112629e-004
3.840160923346438e-005	6.620452e-001	4.113096e-004
3.840882770039327e-005	6.621472e-001	4.114031e-004
3.841556306614221e-005	6.622424e-001	4.114903e-004
3.841652926850213e-005	6.622560e-001	4.115028e-004
3.841846167322198e-005	6.622832e-001	4.115278e-004
3.842232648266168e-005	6.623378e-001	4.115778e-004
3.842332648266168e-005	6.623520e-001	4.115908e-004
3.842532648266169e-005	6.623802e-001	4.116167e-004
3.842599999999999e-005	6.623898e-001	4.116254e-004
3.842734703467660e-005	6.624088e-001	4.116428e-004
3.842834703467660e-005	6.624229e-001	4.116558e-004
3.842899999999999e-005	6.624321e-001	4.116642e-004
3.843000000000000e-005	6.624462e-001	4.116771e-004
3.843010000000000e-005	6.624476e-001	4.116784e-004
3.843030000000000e-005	6.624504e-001	4.116810e-004
3.843100000000000e-005	6.624603e-001	4.116901e-004
3.843684571428573e-005	6.625429e-001	4.117657e-004
3.844269142857145e-005	6.626254e-001	4.118413e-004
3.844853714285718e-005	6.627079e-001	4.119169e-004
3.845438285714291e-005	6.627904e-001	4.119925e-004
3.846022857142864e-005	6.628729e-001	4.120680e-004
3.846607428571436e-005	6.629554e-001	4.121436e-004
3.847192000000009e-005	6.630378e-001	4.122191e-004
3.850907824994328e-005	6.635620e-001	4.126990e-004
3.854542521644969e-005	6.640744e-001	4.131678e-004
3.860346167998912e-005	6.648917e-001	4.139152e-004
3.876355750423410e-005	6.671424e-001	4.159698e-004
3.888104371174041e-005	6.687894e-001	4.174690e-004
3.911601612675301e-005	6.720737e-001	4.204492e-004
3.936659406152567e-005	6.755626e-001	4.236007e-004
3.972321157643251e-005	6.805075e-001	4.280442e-004
4.000000000000000e-005	6.843215e-001	4.314416e-004
4.000030000000000e-005	6.843256e-001	4.314453e-004
4.000060000000001e-005	6.843297e-001	4.314489e-004
4.000100000000001e-005	6.843352e-001	4.314538e-004
4.000245714285715e-005	6.843553e-001	4.314716e-004
4.000391428571430e-005	6.843753e-001	4.314893e-004
4.000537142857145e-005	6.843953e-001	4.315071e-004
4.000682857142859e-005	6.844153e-001	4.315249e-004
4.000828571428573e-005	6.844354e-001	4.315426e-004
4.000974285714288e-005	6.844554e-001	4.315604e-004
4.001120000000003e-005	6.844754e-001	4.315782e-004
4.002144000000005e-005	6.846161e-001	4.317029e-004
4.004160532534813e-005	6.848931e-001	4.319485e-004
4.012654830458401e-005	6.860589e-001	4.329806e-004
4.015021403514533e-005	6.863834e-001	4.332674e-004
4.015749549868400e-005	6.864832e-001	4.333556e-004
4.016122998064873e-005	6.865343e-001	4.334008e-004
4.016573990863411e-005	6.865962e-001	4.334554e-004
4.016944961365460e-005	6.866470e-001	4.335003e-004
