time	V(out)	V(n001)	V(n002)
0.000000000000000e+000	4.563358e-004	3.499800e-007	0.000000e+000
3.607165796628296e-012	4.563358e-004	3.515380e-007	2.480007e-005
7.214331593256592e-012	4.563358e-004	3.537664e-007	6.027657e-005
1.082149738988489e-011	4.563358e-004	3.566652e-007	1.064295e-004
1.442866318651319e-011	4.563358e-004	3.602346e-007	1.632588e-004
1.803582898314148e-011	4.563358e-004	3.644743e-007	2.307646e-004
2.164299477976978e-011	4.563358e-004	3.693846e-007	3.089468e-004
2.525016057639806e-011	4.563358e-004	3.749652e-007	3.978055e-004
4.062040119760735e-011	4.563358e-004	4.100137e-007	9.559636e-004
6.214113515176903e-011	4.563359e-004	4.842842e-007	2.139010e-003
9.258304081330217e-011	4.563359e-004	6.453067e-007	4.704698e-003
1.434177043600133e-010	4.563361e-004	1.074969e-006	1.155363e-002
2.450870314534357e-010	4.563374e-004	2.535549e-006	3.484669e-002
4.484256856402803e-010	4.563426e-004	7.001543e-006	1.060915e-001
5.933226916263109e-010	4.563492e-004	1.141608e-005	1.765290e-001
7.102059880279391e-010	4.563570e-004	1.588209e-005	2.477954e-001
7.662334071967437e-010	4.563620e-004	1.837539e-005	2.875845e-001
8.782882455343529e-010	4.563746e-004	2.402164e-005	3.776926e-001
1.012171175446565e-009	4.563925e-004	3.139800e-005	4.952165e-001
1.182567631698471e-009	4.564251e-004	4.275245e-005	6.553665e-001
1.377306438843506e-009	4.564747e-004	5.816959e-005	8.342981e-001
1.766784053133577e-009	4.566124e-004	9.651553e-005	1.179553e+000
2.545739281713719e-009	4.570306e-004	2.012206e-004	1.823054e+000
4.103649738874003e-009	4.582908e-004	4.937000e-004	2.970698e+000
6.146041957552669e-009	4.606697e-004	1.019695e-003	4.236194e+000
9.035060564798261e-009	4.652019e-004	1.992938e-003	5.642169e+000
1.265507831817560e-008	4.723074e-004	3.493030e-003	6.934093e+000
1.717193951426343e-008	4.827924e-004	5.684061e-003	8.012073e+000
2.329947640670272e-008	4.987495e-004	8.999533e-003	8.901342e+000
3.008136784707212e-008	5.177622e-004	1.293858e-002	9.436196e+000
3.877550282318715e-008	5.432195e-004	1.820752e-002	9.757058e+000
4.909434742030788e-008	5.740846e-004	2.459797e-002	9.910736e+000
6.343403448492765e-008	6.173503e-004	3.356773e-002	9.976670e+000
2.064815290246413e-007	1.043403e-003	1.234405e-001	9.989915e+000
3.495290235643550e-007	1.462680e-003	2.132918e-001	9.999824e+000
4.925765181040687e-007	1.875181e-003	3.031215e-001	1.000640e+001
6.356240126437824e-007	2.280908e-003	3.929296e-001	1.000964e+001
7.786715071834961e-007	2.679859e-003	4.827161e-001	1.000954e+001
9.217190017232098e-007	3.072035e-003	5.724811e-001	1.000610e+001
1.064766496262923e-006	3.457436e-003	6.622245e-001	9.999333e+000
1.065867992573351e-006	3.496801e-003	6.630245e-001	9.999333e+000
1.066488324549419e-006	3.631704e-003	6.637754e-001	9.999333e+000
1.066832802773841e-006	3.847526e-003	6.644571e-001	9.999333e+000
1.067041092903325e-006	4.092872e-003	6.649474e-001	9.999333e+000
1.067306854794194e-006	4.523479e-003	6.655514e-001	9.999333e+000
1.067420106365025e-006	4.739046e-003	6.657736e-001	9.999333e+000
1.067456263342018e-006	4.814174e-003	6.658223e-001	9.999333e+000
1.067492737834725e-006	4.891840e-003	6.658545e-001	9.999333e+000
1.067535050331204e-006	4.982572e-003	6.658857e-001	9.999333e+000
1.067579689060819e-006	5.078790e-003	6.659145e-001	9.999333e+000
1.067634306227716e-006	5.197014e-003	6.659461e-001	9.999333e+000
1.067710251739346e-006	5.361957e-003	6.659867e-001	9.999333e+000
1.067795533736324e-006	5.547709e-003	6.660295e-001	9.999333e+000
1.067933938101068e-006	5.849866e-003	6.660960e-001	9.999333e+000
1.068081948058868e-006	6.173574e-003	6.661653e-001	9.999333e+000
1.068355501480354e-006	6.772636e-003	6.662913e-001	9.999333e+000
1.068628182967662e-006	7.370191e-003	6.664166e-001	9.999333e+000
1.069147115801039e-006	8.507544e-003	6.666565e-001	9.999333e+000
1.069724024563968e-006	9.771104e-003	6.669276e-001	9.999333e+000
1.070801409671917e-006	1.212722e-002	6.674463e-001	9.999333e+000
1.072127712053859e-006	1.501909e-002	6.681075e-001	9.999333e+000
1.074597149946009e-006	2.037674e-002	6.693953e-001	9.999333e+000
1.083511612447238e-006	3.942404e-002	6.744349e-001	9.999333e+000
1.094081176135460e-006	6.136436e-002	6.808117e-001	9.999333e+000
1.115220303511906e-006	1.033436e-001	6.939108e-001	9.999333e+000
1.157498558264797e-006	1.805996e-001	7.203671e-001	9.999333e+000
1.242055067770579e-006	3.175478e-001	7.733443e-001	9.999333e+000
1.335399213449549e-006	4.495211e-001	8.318061e-001	9.999333e+000
1.397902778227978e-006	5.259508e-001	8.709354e-001	9.999333e+000
1.490050756075000e-006	6.255652e-001	9.285981e-001	9.999333e+000
1.556657778052455e-006	6.909119e-001	9.702601e-001	9.999333e+000
1.634232624659567e-006	7.603960e-001	1.018758e+000	9.999333e+000
1.723825970591007e-006	8.342720e-001	1.074734e+000	9.999333e+000
1.881425928334550e-006	9.527326e-001	1.173085e+000	9.999333e+000
2.196625843821637e-006	1.170324e+000	1.369423e+000	9.999333e+000
2.560493755852203e-006	1.406485e+000	1.595406e+000	9.999333e+000
3.019359165207872e-006	1.694259e+000	1.879192e+000	9.999333e+000
4.323219397344491e-006	2.493881e+000	2.674781e+000	9.999333e+000
6.323219397344491e-006	3.686086e+000	3.859688e+000	9.999333e+000
8.323219397344491e-006	4.820575e+000	4.984127e+000	9.999333e+000
1.032321939734449e-005	5.879071e+000	6.029962e+000	9.999333e+000
1.232321939734449e-005	6.844884e+000	6.980701e+000	9.999333e+000
1.432321939734450e-005	7.702781e+000	7.821351e+000	9.999333e+000
1.464847376915243e-005	7.833713e+000	7.949313e+000	9.999333e+000
1.497372814096035e-005	7.960839e+000	8.073416e+000	9.999333e+000
1.529898251276828e-005	8.084157e+000	8.193662e+000	9.999333e+000
1.562423688457621e-005	8.203669e+000	8.310050e+000	9.999333e+000
1.594949125638414e-005	8.319375e+000	8.422580e+000	9.999333e+000
1.627474562819207e-005	8.431273e+000	8.531252e+000	9.999333e+000
1.660000000000000e-005	8.539365e+000	8.636066e+000	9.999333e+000
1.660100000000000e-005	8.539692e+000	8.636383e+000	9.999333e+000
1.660110000000000e-005	8.539724e+000	8.636415e+000	9.986165e+000
1.660130000000000e-005	8.539789e+000	8.636478e+000	9.935537e+000
1.660160000000000e-005	8.539887e+000	8.636574e+000	9.790356e+000
1.660212000000000e-005	8.540057e+000	8.636738e+000	9.398751e+000
1.660324000000000e-005	8.540423e+000	8.637093e+000	8.419069e+000
1.660452000000001e-005	8.540841e+000	8.637498e+000	7.448844e+000
1.660708000000001e-005	8.541675e+000	8.638309e+000	5.843881e+000
1.661074772740520e-005	8.542868e+000	8.639469e+000	4.084657e+000
1.661456085737007e-005	8.544107e+000	8.640676e+000	2.787492e+000
1.661866102996217e-005	8.545440e+000	8.641973e+000	1.839739e+000
1.662238892379557e-005	8.546650e+000	8.643150e+000	1.257776e+000
1.662628373537827e-005	8.547912e+000	8.644381e+000	8.483160e-001
1.663002021393334e-005	8.549118e+000	8.645561e+000	5.808943e-001
1.663391861272294e-005	8.550373e+000	8.646791e+000	3.917325e-001
1.663769355048203e-005	8.551586e+000	8.647983e+000	2.671567e-001
1.664157016550763e-005	8.552831e+000	8.649205e+000	1.804875e-001
1.664535681347065e-005	8.554045e+000	8.650399e+000	1.229631e-001
1.664921835335229e-005	8.555282e+000	8.651616e+000	8.319430e-002
1.665301726515275e-005	8.556499e+000	8.652813e+000	5.661521e-002
1.665686936889672e-005	8.557732e+000	8.654026e+000	3.833784e-002
1.666067653000863e-005	8.558950e+000	8.655225e+000	2.606949e-002
1.666452145989812e-005	8.560181e+000	8.656435e+000	1.766512e-002
1.666833446494262e-005	8.561401e+000	8.657634e+000	1.200569e-002
1.667217439776969e-005	8.562630e+000	8.658841e+000	8.139033e-003
1.667599161179297e-005	8.563851e+000	8.660041e+000	5.529346e-003
1.667982798341019e-005	8.565079e+000	8.661245e+000	3.749756e-003
1.668364818289216e-005	8.566300e+000	8.662445e+000	2.546735e-003
1.668748201969463e-005	8.567527e+000	8.663649e+000	1.727489e-003
1.669130434804762e-005	8.568749e+000	8.664847e+000	1.173033e-003
1.669513638326305e-005	8.569975e+000	8.666049e+000	7.958190e-004
1.669896022754095e-005	8.571198e+000	8.667248e+000	5.403166e-004
1.670279098070904e-005	8.572423e+000	8.668448e+000	3.666097e-004
1.670661590424465e-005	8.573647e+000	8.669646e+000	2.488826e-004
1.671044574527526e-005	8.574871e+000	8.670845e+000	1.688834e-004
1.671810062919078e-005	8.577318e+000	8.673240e+000	7.779740e-005
1.673134211949107e-005	8.581550e+000	8.677378e+000	2.096336e-005
1.675249361415801e-005	8.588304e+000	8.683975e+000	2.644738e-006
1.676283863954877e-005	8.591605e+000	8.687197e+000	8.036612e-007
1.676717176565103e-005	8.592987e+000	8.688545e+000	4.487964e-007
1.676987157979882e-005	8.593845e+000	8.689383e+000	3.348725e-007
1.677142838015091e-005	8.594313e+000	8.689781e+000	2.839345e-007
1.677196619541169e-005	8.594426e+000	8.689819e+000	2.685648e-007
1.677222663888775e-005	8.594446e+000	8.689830e+000	2.615924e-007
1.677237626083368e-005	8.594446e+000	8.689869e+000	2.576920e-007
1.677247980561273e-005	8.594446e+000	8.689907e+000	2.550353e-007
1.677260023601977e-005	8.594445e+000	8.689948e+000	2.519919e-007
1.677283470194632e-005	8.594444e+000	8.690027e+000	2.462013e-007
1.677330363379941e-005	8.594443e+000	8.690186e+000	2.351086e-007
1.677424149750558e-005	8.594440e+000	8.690498e+000	2.147172e-007
1.678737158939204e-005	8.594390e+000	8.694735e+000	6.923428e-008
1.683238904728845e-005	8.594237e+000	8.708731e+000	1.962752e-009
1.689241232448368e-005	8.594068e+000	8.727161e+000	-2.245482e-010
1.701245887887412e-005	8.593798e+000	8.763669e+000	1.978332e-011
1.713817352474364e-005	8.593594e+000	8.801382e+000	-2.638879e-011
1.730928935273180e-005	8.593410e+000	8.851829e+000	5.778946e-012
1.748722155491628e-005	8.593288e+000	8.903172e+000	-1.029260e-011
1.772737273604984e-005	8.593191e+000	8.970658e+000	3.270121e-012
1.799511732925456e-005	8.593126e+000	9.043384e+000	-4.805838e-012
1.836753294802924e-005	8.593070e+000	9.140059e+000	2.195943e-012
1.883115079543168e-005	8.593017e+000	9.252638e+000	-2.742800e-012
1.957634390982645e-005	8.592945e+000	9.419909e+000	-2.742258e-012
2.000000000000000e-005	8.592908e+000	9.508614e+000	1.331164e-010
2.070000000000000e-005	8.592852e+000	9.632502e+000	-2.414661e-013
2.250000000000000e-005	8.592718e+000	9.866150e+000	-3.275592e-015
2.450000000000000e-005	8.592576e+000	9.985003e+000	-3.023731e-015
2.650000000000000e-005	8.592429e+000	9.946386e+000	-2.791278e-015
2.850000000000001e-005	8.592265e+000	9.750910e+000	-2.576498e-015
3.050000000000001e-005	8.592078e+000	9.401655e+000	-2.378523e-015
3.090000031428575e-005	8.592038e+000	9.316195e+000	-2.572890e-006
3.130000062857150e-005	8.591996e+000	9.224564e+000	-3.980933e-006
3.170000094285724e-005	8.591953e+000	9.126761e+000	-4.224129e-006
3.210000125714298e-005	8.591909e+000	9.022788e+000	-3.302477e-006
3.250000157142873e-005	8.591864e+000	8.912644e+000	-1.215978e-006
3.290000188571447e-005	8.591817e+000	8.796329e+000	2.035368e-006
3.330000220000022e-005	8.591769e+000	8.673843e+000	6.451561e-006
3.330001073427048e-005	8.591769e+000	8.673841e+000	6.447377e-005
3.330001506023878e-005	8.591769e+000	8.673840e+000	1.251034e-004
3.330002371217537e-005	8.591769e+000	8.673837e+000	3.206413e-004
3.330004101604855e-005	8.591769e+000	8.673831e+000	9.913391e-004
3.330007562379492e-005	8.591769e+000	8.673820e+000	3.447606e-003
3.330014483928766e-005	8.591769e+000	8.673799e+000	1.279088e-002
3.330028327027313e-005	8.591769e+000	8.673756e+000	4.897342e-002
3.330056013224408e-005	8.591769e+000	8.673669e+000	1.823595e-001
3.330100000000000e-005	8.591769e+000	8.673532e+000	4.829181e-001
3.330130790742914e-005	8.591769e+000	8.673435e+000	7.699887e-001
3.330165980163387e-005	8.591769e+000	8.673325e+000	1.085112e+000
3.330236359004333e-005	8.591769e+000	8.673105e+000	1.676339e+000
3.330377116686226e-005	8.591770e+000	8.672665e+000	2.720827e+000
3.330658632050011e-005	8.591773e+000	8.671783e+000	4.421626e+000
3.331051924564370e-005	8.591779e+000	8.670553e+000	6.187212e+000
3.331508364659427e-005	8.591787e+000	8.669124e+000	7.564679e+000
3.332045827421717e-005	8.591799e+000	8.667440e+000	8.562608e+000
3.332675536199208e-005	8.591814e+000	8.665466e+000	9.223197e+000
3.333447604796023e-005	8.591834e+000	8.663043e+000	9.632891e+000
3.334396607439214e-005	8.591859e+000	8.660063e+000	9.853354e+000
3.335627733239579e-005	8.591892e+000	8.656192e+000	9.954734e+000
3.339753732309593e-005	8.592004e+000	8.643175e+000	9.998688e+000
3.431344776178321e-005	8.594304e+000	8.339597e+000	9.999333e+000
3.432489015253178e-005	8.593735e+000	8.335365e+000	9.999333e+000
3.432858011010413e-005	8.592564e+000	8.333770e+000	9.999333e+000
3.432982226866314e-005	8.591705e+000	8.333299e+000	9.999333e+000
3.433067658799247e-005	8.590979e+000	8.333052e+000	9.999333e+000
3.433150585459709e-005	8.590276e+000	8.332808e+000	9.999333e+000
3.433316438780632e-005	8.588873e+000	8.332306e+000	9.999333e+000
3.434311558706169e-005	8.580581e+000	8.329100e+000	9.999333e+000
3.438292038408318e-005	8.549258e+000	8.315400e+000	9.999333e+000
3.443599344677851e-005	8.511325e+000	8.296806e+000	9.999333e+000
3.454213957216915e-005	8.442457e+000	8.259382e+000	9.999333e+000
3.460542241085503e-005	8.405307e+000	8.236924e+000	9.999333e+000
3.466740679047523e-005	8.372196e+000	8.214772e+000	9.999333e+000
3.474123089895261e-005	8.335189e+000	8.188239e+000	9.999333e+000
3.479411448872581e-005	8.310126e+000	8.169120e+000	9.999333e+000
3.487020709583114e-005	8.276006e+000	8.141409e+000	9.999333e+000
3.499306721914068e-005	8.223907e+000	8.096176e+000	9.999333e+000
3.523878746575975e-005	8.125119e+000	8.003891e+000	9.999333e+000
3.573022795899790e-005	7.931559e+000	7.812291e+000	9.999333e+000
3.671310894547420e-005	7.534600e+000	7.408918e+000	9.999333e+000
3.871310894547420e-005	6.652926e+000	6.510427e+000	9.999333e+000
4.071310894547419e-005	5.666583e+000	5.509389e+000	9.999333e+000
4.271310894547419e-005	4.590912e+000	4.421465e+000	9.999333e+000
4.471310894547418e-005	3.442873e+000	3.263812e+000	9.999333e+000
4.671310894547418e-005	2.240571e+000	2.054687e+000	9.999333e+000
4.890100000000001e-005	8.863739e-001	6.961962e-001	9.999333e+000
4.990000000000000e-005	2.599819e-001	6.911483e-002	9.999333e+000
4.990100000000000e-005	2.593539e-001	6.848652e-002	9.999333e+000
4.990110000000000e-005	2.592911e-001	6.842369e-002	9.986165e+000
4.990130000000000e-005	2.591655e-001	6.829803e-002	9.935537e+000
4.990160000000000e-005	2.589771e-001	6.810953e-002	9.790356e+000
4.990212000000000e-005	2.586505e-001	6.778282e-002	9.398751e+000
4.990324000000000e-005	2.579468e-001	6.707912e-002	8.419069e+000
4.990452000000000e-005	2.571422e-001	6.627489e-002	7.448844e+000
4.990708000000001e-005	2.555322e-001	6.466643e-002	5.843881e+000
4.991074772740520e-005	2.532246e-001	6.236197e-002	4.084657e+000
4.991456085737007e-005	2.508247e-001	5.996616e-002	2.787492e+000
4.991866102996216e-005	2.482437e-001	5.738999e-002	1.839739e+000
4.992238892379557e-005	2.458966e-001	5.504772e-002	1.257776e+000
4.992628373537827e-005	2.434425e-001	5.260058e-002	8.483160e-001
4.993002021393334e-005	2.410849e-001	5.025291e-002	5.808943e-001
4.993391861272294e-005	2.386219e-001	4.780350e-002	3.917325e-001
4.993769355048203e-005	2.362348e-001	4.543167e-002	2.671567e-001
4.994157016550763e-005	2.337821e-001	4.299594e-002	1.804875e-001
4.994535681347065e-005	2.313858e-001	4.061674e-002	1.229631e-001
4.994921835335229e-005	2.289418e-001	3.819048e-002	8.319430e-002
4.995301726515274e-005	2.265373e-001	3.580358e-002	5.661521e-002
4.995686936889672e-005	2.240994e-001	3.338324e-002	3.833784e-002
4.996067653000863e-005	2.216901e-001	3.099114e-002	2.606949e-002
4.996452145989812e-005	2.192573e-001	2.857531e-002	1.766512e-002
4.996833446494262e-005	2.168449e-001	2.617954e-002	1.200569e-002
4.997217439776969e-005	2.144159e-001	2.376685e-002	8.139033e-003
4.997599161179296e-005	2.120017e-001	2.136843e-002	5.529346e-003
4.997982798341018e-005	2.095757e-001	1.895797e-002	3.749756e-003
4.998364818289215e-005	2.071604e-001	1.655767e-002	2.546735e-003
4.998748201969462e-005	2.047368e-001	1.414881e-002	1.727489e-003
4.999130434804761e-005	2.023209e-001	1.174717e-002	1.173033e-003
4.999513638326304e-005	1.998993e-001	9.339434e-003	7.958190e-004
4.999896022754093e-005	1.974833e-001	6.936843e-003	5.403166e-004
5.000279098070903e-005	1.950632e-001	4.529911e-003	3.666097e-004
5.000661590424463e-005	1.926472e-001	2.126642e-003	2.488826e-004
5.001044574527524e-005	1.902285e-001	-2.797175e-004	1.688834e-004
5.001810062919076e-005	1.853952e-001	-5.089421e-003	7.779740e-005
5.003134211949104e-005	1.770378e-001	-1.340929e-002	2.096336e-005
5.006283863954874e-005	1.571760e-001	-3.319899e-002	9.692992e-007
5.007657129733766e-005	1.485248e-001	-4.182708e-002	1.498818e-007
5.007846430088519e-005	1.473346e-001	-4.301497e-002	1.057571e-007
5.008009196985086e-005	1.463537e-001	-4.387449e-002	8.972009e-008
5.008054883988335e-005	1.461558e-001	-4.392482e-002	8.556836e-008
5.008080513932036e-005	1.461124e-001	-4.392659e-002	8.338547e-008
5.008094065990724e-005	1.461094e-001	-4.399502e-002	8.225849e-008
5.008103791631789e-005	1.461096e-001	-4.406742e-002	8.146183e-008
5.008115030680418e-005	1.461093e-001	-4.414540e-002	8.055419e-008
5.008137508777678e-005	1.461084e-001	-4.429902e-002	7.877738e-008
5.008180488944275e-005	1.461067e-001	-4.459096e-002	7.550964e-008
5.008262344015584e-005	1.461034e-001	-4.514375e-002	6.973587e-008
5.009408315013908e-005	1.460577e-001	-5.263857e-002	2.561699e-008
5.010717996154851e-005	1.460077e-001	-6.097666e-002	9.299109e-009
5.013337358436736e-005	1.459139e-001	-7.748827e-002	1.237525e-009
5.018576083000505e-005	1.457482e-001	-1.104111e-001	-9.628433e-011
5.029053532128044e-005	1.454744e-001	-1.762335e-001	1.266682e-011
5.041894627128682e-005	1.452167e-001	-2.568944e-001	-7.165864e-012
5.058010978384837e-005	1.449832e-001	-3.581030e-001	2.843949e-012
5.075984562564396e-005	1.447992e-001	-4.709278e-001	-2.794080e-012
5.098553618376694e-005	1.446348e-001	-6.125063e-001	1.427840e-012
5.125158188156028e-005	1.444887e-001	-7.792300e-001	-1.096140e-012
5.157498117671212e-005	1.443435e-001	-9.815735e-001	8.227865e-013
5.197826886820310e-005	1.441827e-001	-1.233246e+000	-7.641137e-013
5.253916552996672e-005	1.439747e-001	-1.581650e+000	5.824676e-013
5.438638497648805e-005	1.433491e-001	-2.712541e+000	1.635497e-014
5.638638497648804e-005	1.427518e-001	-3.896209e+000	1.509730e-014
5.838638497648804e-005	1.422286e-001	-5.018431e+000	1.393590e-014
6.038638497648803e-005	1.417718e-001	-6.061510e+000	1.286384e-014
6.238638497648803e-005	1.413762e-001	-7.008995e+000	1.187462e-014
6.438638497648803e-005	1.410392e-001	-7.845943e+000	1.096215e-014
6.470261600841834e-005	1.409900e-001	-7.969905e+000	-2.719415e-006
6.501884704034865e-005	1.409425e-001	-8.090170e+000	-4.225142e-006
6.533507807227896e-005	1.408966e-001	-8.206740e+000	-4.517179e-006
6.565130910420928e-005	1.408523e-001	-8.319613e+000	-3.595528e-006
6.596754013613959e-005	1.408095e-001	-8.428790e+000	-1.460187e-006
6.628377116806990e-005	1.407684e-001	-8.534272e+000	1.888842e-006
6.660000220000021e-005	1.407289e-001	-8.636057e+000	6.451561e-006
6.660001073427047e-005	1.407289e-001	-8.636059e+000	6.447377e-005
6.660001506023876e-005	1.407289e-001	-8.636061e+000	1.251034e-004
6.660002371217535e-005	1.407289e-001	-8.636064e+000	3.206413e-004
6.660004101604854e-005	1.407289e-001	-8.636068e+000	9.913391e-004
6.660007562379493e-005	1.407289e-001	-8.636080e+000	3.447606e-003
6.660014483928769e-005	1.407289e-001	-8.636102e+000	1.279088e-002
6.660028327027323e-005	1.407289e-001	-8.636146e+000	4.897342e-002
6.660056013224429e-005	1.407288e-001	-8.636233e+000	1.823595e-001
6.660100000000000e-005	1.407288e-001	-8.636373e+000	4.829181e-001
6.660130790742899e-005	1.407288e-001	-8.636470e+000	7.699887e-001
6.660165980163354e-005	1.407289e-001	-8.636581e+000	1.085112e+000
6.660236359004267e-005	1.407291e-001	-8.636805e+000	1.676339e+000
6.660377116686093e-005	1.407300e-001	-8.637250e+000	2.720827e+000
6.660658632049744e-005	1.407328e-001	-8.638142e+000	4.421626e+000
6.661051924564106e-005	1.407385e-001	-8.639386e+000	6.187212e+000
