time	V(out)	V(n001)	V(n002)
0.000000000000000e+000	4.563358e-004	3.499800e-007	0.000000e+000
3.607165796628296e-012	4.563358e-004	3.515380e-007	2.480007e-005
7.214331593256592e-012	4.563358e-004	3.537664e-007	6.027657e-005
1.082149738988489e-011	4.563358e-004	3.566652e-007	1.064295e-004
1.442866318651319e-011	4.563358e-004	3.602346e-007	1.632588e-004
1.803582898314148e-011	4.563358e-004	3.644743e-007	2.307646e-004
2.164299477976978e-011	4.563359e-004	3.693846e-007	3.089468e-004
2.525016057639806e-011	4.563359e-004	3.749652e-007	3.978055e-004
4.062040119760735e-011	4.563359e-004	4.100137e-007	9.559636e-004
6.214113515136662e-011	4.563361e-004	4.842843e-007	2.139010e-003
9.258304081158904e-011	4.563366e-004	6.453072e-007	4.704698e-003
1.434177043484177e-010	4.563388e-004	1.074972e-006	1.155363e-002
2.450870314220750e-010	4.563510e-004	2.535572e-006	3.484669e-002
4.484256855693898e-010	4.564023e-004	7.001661e-006	1.060915e-001
5.933226917053707e-010	4.564667e-004	1.141633e-005	1.765290e-001
7.102059877280381e-010	4.565434e-004	1.588250e-005	2.477954e-001
7.662334079546653e-010	4.565922e-004	1.837591e-005	2.875845e-001
8.782882484079196e-010	4.567160e-004	2.402244e-005	3.776926e-001
1.012171175159208e-009	4.568916e-004	3.139920e-005	4.952165e-001
1.182567627388121e-009	4.572104e-004	4.275441e-005	6.553665e-001
1.377306429935449e-009	4.576968e-004	5.817274e-005	8.342981e-001
1.766784035030107e-009	4.590454e-004	9.652202e-005	1.179553e+000
2.545739245219422e-009	4.631430e-004	2.012371e-004	1.823054e+000
4.103649665598052e-009	4.754892e-004	4.937428e-004	2.970702e+000
6.145870204563283e-009	4.987914e-004	1.019735e-003	4.236104e+000
9.034742839946453e-009	5.431866e-004	1.992992e-003	5.642042e+000
1.265445632980951e-008	6.127832e-004	3.492995e-003	6.933981e+000
1.716806306754917e-008	7.154162e-004	5.682472e-003	8.011354e+000
2.329738223625763e-008	8.717718e-004	8.998923e-003	8.901094e+000
3.007690149077071e-008	1.057949e-003	1.293659e-002	9.435957e+000
3.877271448201350e-008	1.307372e-003	1.820657e-002	9.756988e+000
4.908769062261941e-008	1.609609e-003	2.459462e-002	9.910685e+000
6.342874338366916e-008	2.033478e-003	3.356525e-002	9.976656e+000
1.694371864380640e-007	5.150700e-003	1.001561e-001	9.999340e+000
2.801967571039062e-007	8.350106e-003	1.697379e-001	9.999332e+000
5.017158984355906e-007	1.457693e-002	3.088515e-001	9.999334e+000
5.821596262161819e-007	1.683887e-002	3.593812e-001	9.999338e+000
6.626033539967732e-007	1.907441e-002	4.098967e-001	9.999340e+000
7.430470817773646e-007	2.128358e-002	4.603979e-001	9.999341e+000
8.234908095579559e-007	2.346635e-002	5.108848e-001	9.999341e+000
9.039345373385472e-007	2.562274e-002	5.613575e-001	9.999339e+000
9.843782651191387e-007	2.775274e-002	6.118159e-001	9.999337e+000
1.064821992899730e-006	2.985635e-002	6.622601e-001	9.999333e+000
1.065928183160247e-006	3.027554e-002	6.630734e-001	9.999333e+000
1.066551157131225e-006	3.170013e-002	6.638452e-001	9.999333e+000
1.066902609530778e-006	3.395054e-002	6.645475e-001	9.999333e+000
1.067102244837681e-006	3.630067e-002	6.650166e-001	9.999333e+000
1.067361217124054e-006	4.040100e-002	6.655930e-001	9.999333e+000
1.067442829709201e-006	4.188987e-002	6.657301e-001	9.999333e+000
1.067495263167653e-006	4.291641e-002	6.657842e-001	9.999333e+000
1.067525301316782e-006	4.351166e-002	6.658071e-001	9.999333e+000
1.067560958822459e-006	4.422132e-002	6.658309e-001	9.999333e+000
1.067593212922448e-006	4.486468e-002	6.658507e-001	9.999333e+000
1.067626395324336e-006	4.552765e-002	6.658699e-001	9.999333e+000
1.067672443365149e-006	4.644866e-002	6.658950e-001	9.999333e+000
1.067717848743803e-006	4.735737e-002	6.659189e-001	9.999333e+000
1.067796229454146e-006	4.892623e-002	6.659583e-001	9.999333e+000
1.067874701417587e-006	5.049567e-002	6.659967e-001	9.999333e+000
1.068031645344469e-006	5.362917e-002	6.660714e-001	9.999333e+000
1.068176513279972e-006	5.651123e-002	6.661394e-001	9.999333e+000
1.068466249150979e-006	6.224401e-002	6.662743e-001	9.999333e+000
1.068756930683518e-006	6.794346e-002	6.664099e-001	9.999333e+000
1.069338293748594e-006	7.919560e-002	6.666832e-001	9.999333e+000
1.069947090850692e-006	9.074015e-002	6.669746e-001	9.999333e+000
1.071164685054887e-006	1.131066e-001	6.675735e-001	9.999333e+000
1.072887643951864e-006	1.431037e-001	6.684549e-001	9.999333e+000
1.076333561745816e-006	1.974090e-001	6.703176e-001	9.999333e+000
1.083225397333721e-006	2.878026e-001	6.742784e-001	9.999333e+000
1.096950439896576e-006	4.254494e-001	6.825528e-001	9.999333e+000
1.110113384253825e-006	5.170749e-001	6.906995e-001	9.999333e+000
1.128456840280809e-006	5.981569e-001	7.021729e-001	9.999333e+000
1.146949874314317e-006	6.490533e-001	7.137593e-001	9.999333e+000
1.173232177966670e-006	6.925835e-001	7.302294e-001	9.999333e+000
1.202288346353742e-006	7.236217e-001	7.484356e-001	9.999333e+000
1.245180797003091e-006	7.565775e-001	7.753065e-001	9.999333e+000
1.299030709325979e-006	7.921783e-001	8.090339e-001	9.999333e+000
1.367730210492682e-006	8.353601e-001	8.520490e-001	9.999333e+000
1.435005280874750e-006	8.772303e-001	8.941574e-001	9.999333e+000
1.566153337686724e-006	9.590075e-001	9.761987e-001	9.999333e+000
2.437432976727754e-006	1.505123e+000	1.522205e+000	9.999333e+000
3.308712615768784e-006	2.042898e+000	2.059817e+000	9.999333e+000
4.179992254809813e-006	2.572333e+000	2.589034e+000	9.999333e+000
5.051271893850844e-006	3.093427e+000	3.109856e+000	9.999333e+000
5.922551532891874e-006	3.606181e+000	3.622285e+000	9.999333e+000
6.793831171932904e-006	4.110595e+000	4.126318e+000	9.999333e+000
7.665110810973933e-006	4.606668e+000	4.621958e+000	9.999333e+000
9.665110810973934e-006	5.681446e+000	5.695544e+000	9.999333e+000
1.166511081097394e-005	6.666656e+000	6.679309e+000	9.999333e+000
1.366511081097394e-005	7.546760e+000	7.557737e+000	9.999333e+000
1.408438069512052e-005	7.719238e+000	7.729838e+000	9.999333e+000
1.450365057926710e-005	7.885706e+000	7.895922e+000	9.999333e+000
1.492292046341368e-005	8.046165e+000	8.055987e+000	9.999333e+000
1.534219034756026e-005	8.200614e+000	8.210034e+000	9.999333e+000
1.576146023170684e-005	8.349055e+000	8.358063e+000	9.999333e+000
1.618073011585342e-005	8.491486e+000	8.500074e+000	9.999333e+000
1.660000000000000e-005	8.627908e+000	8.636066e+000	9.999333e+000
1.660100000000000e-005	8.628225e+000	8.636383e+000	9.999333e+000
1.660110000000000e-005	8.628257e+000	8.636415e+000	9.986165e+000
1.660130000000000e-005	8.628321e+000	8.636478e+000	9.935537e+000
1.660160000000000e-005	8.628416e+000	8.636574e+000	9.790356e+000
1.660212000000000e-005	8.628580e+000	8.636738e+000	9.398751e+000
1.660324000000000e-005	8.628933e+000	8.637093e+000	8.419069e+000
1.660452000000001e-005	8.629332e+000	8.637498e+000	7.448844e+000
1.660708000000001e-005	8.630123e+000	8.638309e+000	5.843881e+000
1.661074772740520e-005	8.631250e+000	8.639469e+000	4.084657e+000
1.661456085737007e-005	8.632418e+000	8.640676e+000	2.787492e+000
1.661866102996217e-005	8.633675e+000	8.641973e+000	1.839739e+000
1.662238892379557e-005	8.634816e+000	8.643150e+000	1.257776e+000
1.662628373537827e-005	8.635995e+000	8.644381e+000	8.483160e-001
1.663002021393334e-005	8.637101e+000	8.645561e+000	5.808943e-001
1.663391861272294e-005	8.638232e+000	8.646791e+000	3.917325e-001
1.663769355048203e-005	8.639318e+000	8.647983e+000	2.671567e-001
1.664157016550763e-005	8.640431e+000	8.649205e+000	1.804875e-001
1.664535681347065e-005	8.641524e+000	8.650399e+000	1.229631e-001
1.664921835335229e-005	8.642647e+000	8.651616e+000	8.319430e-002
1.665301726515275e-005	8.643759e+000	8.652813e+000	5.661521e-002
1.665686936889672e-005	8.644896e+000	8.654026e+000	3.833784e-002
1.666067653000863e-005	8.646029e+000	8.655225e+000	2.606949e-002
1.666452145989812e-005	8.647181e+000	8.656435e+000	1.766512e-002
1.666833446494262e-005	8.648332e+000	8.657634e+000	1.200569e-002
1.667217439776969e-005	8.649498e+000	8.658841e+000	8.139033e-003
1.667599161179297e-005	8.650663e+000	8.660041e+000	5.529346e-003
1.667982798341019e-005	8.651840e+000	8.661245e+000	3.749756e-003
1.668364818289216e-005	8.653017e+000	8.662445e+000	2.546735e-003
1.668748201969463e-005	8.654203e+000	8.663649e+000	1.727489e-003
1.669130434804762e-005	8.655390e+000	8.664847e+000	1.173033e-003
1.669513638326305e-005	8.656583e+000	8.666049e+000	7.958190e-004
1.669896022754095e-005	8.657776e+000	8.667248e+000	5.403166e-004
1.670279098070904e-005	8.658973e+000	8.668448e+000	3.666097e-004
1.670661590424465e-005	8.660172e+000	8.669646e+000	2.488826e-004
1.671044574527526e-005	8.661372e+000	8.670845e+000	1.688834e-004
1.671810062919078e-005	8.663778e+000	8.673240e+000	7.779740e-005
1.673134211949107e-005	8.667949e+000	8.677378e+000	2.096336e-005
1.676283863954877e-005	8.677881e+000	8.687197e+000	8.136855e-007
1.676758914233583e-005	8.679378e+000	8.688675e+000	4.340804e-007
1.677087658971424e-005	8.680334e+000	8.689687e+000	3.023250e-007
1.677231256145109e-005	8.680593e+000	8.690118e+000	2.591245e-007
1.677305165369068e-005	8.680614e+000	8.690343e+000	2.404064e-007
1.677399267126832e-005	8.680579e+000	8.690637e+000	2.186907e-007
1.677450313848653e-005	8.680560e+000	8.690797e+000	2.077118e-007
1.677511930651154e-005	8.680537e+000	8.690989e+000	1.953206e-007
1.677571143269216e-005	8.680515e+000	8.691174e+000	1.841004e-007
1.677638000080264e-005	8.680490e+000	8.691382e+000	1.723025e-007
1.677737865985986e-005	8.680452e+000	8.691694e+000	1.561730e-007
1.677872587398303e-005	8.680402e+000	8.692115e+000	1.370337e-007
1.678105587440880e-005	8.680316e+000	8.692841e+000	1.099613e-007
1.678499962614525e-005	8.680172e+000	8.694067e+000	7.673921e-008
1.680485441656927e-005	8.679473e+000	8.700228e+000	1.494221e-008
1.682837120523616e-005	8.678704e+000	8.707498e+000	2.169257e-009
1.687135315132232e-005	8.677454e+000	8.720723e+000	-1.149416e-010
1.695731704349464e-005	8.675388e+000	8.746964e+000	1.779456e-011
1.708662176757464e-005	8.673032e+000	8.785980e+000	-4.249838e-012
1.723440346774296e-005	8.671169e+000	8.829876e+000	3.151796e-012
1.741439412539539e-005	8.669718e+000	8.882296e+000	-1.596408e-012
1.762135293100911e-005	8.668702e+000	8.941123e+000	1.428468e-012
1.788204318642890e-005	8.667946e+000	9.013000e+000	-8.256353e-013
1.819969836194984e-005	8.667379e+000	9.097145e+000	7.487879e-013
1.862710004827157e-005	8.666852e+000	9.204196e+000	-5.231646e-013
1.922166801684577e-005	8.666263e+000	9.341617e+000	2.906568e-013
2.000000000000000e-005	8.665567e+000	9.508614e+000	3.107828e-011
2.009818852684109e-005	8.665487e+000	9.527347e+000	1.140540e-011
2.029456558052328e-005	8.665330e+000	9.563557e+000	1.391748e-013
2.147282790261638e-005	8.664438e+000	9.746471e+000	1.206916e-014
2.347282790261638e-005	8.663029e+000	9.943570e+000	7.421906e-016
2.547282790261638e-005	8.661633e+000	9.985909e+000	6.851887e-016
2.747282790261638e-005	8.660124e+000	9.870763e+000	6.324964e-016
2.947282790261638e-005	8.658415e+000	9.599950e+000	5.838700e-016
3.147282790261638e-005	8.656449e+000	9.179295e+000	-4.958868e-015
3.330000220000022e-005	8.654413e+000	8.673843e+000	6.451561e-006
3.330001073427048e-005	8.654413e+000	8.673841e+000	6.447377e-005
3.330001506023878e-005	8.654413e+000	8.673840e+000	1.251034e-004
3.330002371217537e-005	8.654413e+000	8.673837e+000	3.206413e-004
3.330004101604855e-005	8.654413e+000	8.673831e+000	9.913391e-004
3.330007562379492e-005	8.654413e+000	8.673820e+000	3.447606e-003
3.330014483928766e-005	8.654413e+000	8.673799e+000	1.279088e-002
3.330028327027313e-005	8.654412e+000	8.673756e+000	4.897342e-002
3.330056013224408e-005	8.654412e+000	8.673669e+000	1.823595e-001
3.330100000000000e-005	8.654412e+000	8.673532e+000	4.829181e-001
3.330130790742914e-005	8.654412e+000	8.673435e+000	7.699887e-001
3.330165980163387e-005	8.654413e+000	8.673325e+000	1.085112e+000
3.330236359004333e-005	8.654415e+000	8.673105e+000	1.676339e+000
3.330377116686226e-005	8.654424e+000	8.672665e+000	2.720827e+000
3.330658632050011e-005	8.654451e+000	8.671784e+000	4.421626e+000
3.331051924564370e-005	8.654508e+000	8.670553e+000	6.187212e+000
3.331508364659427e-005	8.654591e+000	8.669125e+000	7.564679e+000
3.332045827421717e-005	8.654706e+000	8.667440e+000	8.562608e+000
3.332675536199208e-005	8.654856e+000	8.665466e+000	9.223197e+000
3.333447604796023e-005	8.655050e+000	8.663044e+000	9.632891e+000
3.334396607439214e-005	8.655296e+000	8.660064e+000	9.853354e+000
3.335627733239579e-005	8.655621e+000	8.656192e+000	9.954734e+000
3.339753732309593e-005	8.656711e+000	8.643176e+000	9.998688e+000
3.431352049974698e-005	8.679245e+000	8.339572e+000	9.999333e+000
3.432502846605218e-005	8.672081e+000	8.335232e+000	9.999333e+000
3.432873836304842e-005	8.657567e+000	8.333526e+000	9.999333e+000
3.432998825601952e-005	8.647077e+000	8.333039e+000	9.999333e+000
3.433084940234077e-005	8.638409e+000	8.332807e+000	9.999333e+000
3.433168574171109e-005	8.630288e+000	8.332575e+000	9.999333e+000
3.433335842045173e-005	8.614867e+000	8.332093e+000	9.999333e+000
3.433670377793302e-005	8.586791e+000	8.331082e+000	9.999333e+000
3.434339449289558e-005	8.539830e+000	8.328942e+000	9.999333e+000
3.435677592282073e-005	8.472048e+000	8.324443e+000	9.999333e+000
3.438353878267100e-005	8.394317e+000	8.315182e+000	9.999333e+000
3.443706450237157e-005	8.324376e+000	8.296448e+000	9.999333e+000
3.450186993020341e-005	8.287644e+000	8.273621e+000	9.999333e+000
3.460276214241337e-005	8.250865e+000	8.237847e+000	9.999333e+000
3.467189748401706e-005	8.226029e+000	8.213155e+000	9.999333e+000
3.480791377194387e-005	8.176789e+000	8.164114e+000	9.999333e+000
3.607227458684930e-005	7.681851e+000	7.667919e+000	9.999333e+000
3.733663540175474e-005	7.148304e+000	7.133206e+000	9.999333e+000
3.860099621666017e-005	6.576149e+000	6.559975e+000	9.999333e+000
3.986535703156561e-005	5.965384e+000	5.948227e+000	9.999333e+000
4.112971784647105e-005	5.316010e+000	5.297962e+000	9.999333e+000
4.239407866137648e-005	4.628027e+000	4.609179e+000	9.999333e+000
4.365843947628191e-005	3.901436e+000	3.881879e+000	9.999333e+000
4.565843947628191e-005	2.717993e+000	2.697565e+000	9.999333e+000
4.765843947628190e-005	1.491720e+000	1.470709e+000	9.999333e+000
4.797537387046185e-005	1.294677e+000	1.273595e+000	9.999333e+000
4.829230826464180e-005	1.097276e+000	1.076132e+000	9.999333e+000
4.860924265882176e-005	8.995164e-001	8.783202e-001	9.999333e+000
4.892617705300171e-005	7.013992e-001	6.801587e-001	9.999333e+000
4.924311144718166e-005	5.029238e-001	4.816479e-001	9.999333e+000
4.956004584136161e-005	3.040904e-001	2.827877e-001	9.999333e+000
4.987698023554156e-005	1.048989e-001	8.357814e-002	9.999333e+000
4.988498023554158e-005	9.987288e-002	7.855176e-002	9.999333e+000
4.988503952891672e-005	9.983563e-002	7.851451e-002	9.999333e+000
4.988511858675024e-005	9.978596e-002	7.846484e-002	9.999333e+000
4.988527670241729e-005	9.968662e-002	7.836549e-002	9.999333e+000
4.990007987377401e-005	9.038649e-002	6.906464e-002	9.999333e+000
4.990100000000000e-005	8.980842e-002	6.848652e-002	9.999333e+000
4.990109201262259e-005	8.975061e-002	6.842871e-002	9.988173e+000
4.990127603786779e-005	8.963497e-002	6.831308e-002	9.941216e+000
4.990164408835819e-005	8.940358e-002	6.808183e-002	9.762050e+000
4.990203559116418e-005	8.915728e-002	6.783585e-002	9.478850e+000
4.990267623211946e-005	8.875299e-002	6.743334e-002	8.902773e+000
4.990331687307473e-005	8.834799e-002	6.703082e-002	8.361293e+000
4.990395751403001e-005	8.794229e-002	6.662830e-002	7.854410e+000
4.990459815498528e-005	8.753587e-002	6.622579e-002	7.382125e+000
4.990523879594056e-005	8.712875e-002	6.582327e-002	6.944437e+000
4.990587943689583e-005	8.672092e-002	6.542075e-002	6.541346e+000
4.990652007785111e-005	8.631238e-002	6.501823e-002	6.172853e+000
4.991040997101567e-005	8.382965e-002	6.257419e-002	4.249090e+000
4.991463994951855e-005	8.112554e-002	5.991646e-002	2.771189e+000
4.991859904197680e-005	7.859534e-002	5.742894e-002	1.846053e+000
4.992236640961037e-005	7.618738e-002	5.506187e-002	1.258109e+000
4.992614959095355e-005	7.375684e-002	5.268486e-002	8.582464e-001
4.992997026105228e-005	7.127754e-002	5.028429e-002	5.832703e-001
4.993381132094064e-005	6.876282e-002	4.787092e-002	3.953758e-001
4.993764076712603e-005	6.624560e-002	4.546483e-002	2.682546e-001
4.994146946923115e-005	6.372858e-002	4.305921e-002	1.820377e-001
4.994529387501643e-005	6.121954e-002	4.065629e-002	1.235895e-001
4.994912274683030e-005	5.871554e-002	3.825055e-002	8.387292e-002
4.995294931407108e-005	5.622228e-002	3.584627e-002	5.693076e-002
4.995677812297225e-005	5.373716e-002	3.344057e-002	3.863485e-002
4.996060479206628e-005	5.126287e-002	3.103622e-002	2.622398e-002
4.996443311049906e-005	4.879648e-002	2.863082e-002	1.779724e-002
4.996826004376767e-005	4.633934e-002	2.622630e-002	1.207987e-002
4.997208818500235e-005	4.388908e-002	2.382102e-002	8.198291e-003
4.997591531901713e-005	4.144641e-002	2.141636e-002	5.564482e-003
4.997974329738411e-005	3.900946e-002	1.901118e-002	3.776524e-003
4.998357055872806e-005	3.657855e-002	1.660645e-002	2.563236e-003
4.998739842466713e-005	3.415225e-002	1.420133e-002	1.739645e-003
4.999122578154602e-005	3.173069e-002	1.179653e-002	1.180737e-003
4.999505356830576e-005	2.931277e-002	9.391466e-003	8.013612e-004
4.999888099229482e-005	2.689853e-002	6.986626e-003	5.438988e-004
5.000270872219787e-005	2.448713e-002	4.581593e-003	3.691438e-004
5.000653619399374e-005	2.207856e-002	2.176723e-003	2.505437e-004
5.001036388356428e-005	1.967218e-002	-2.282853e-004	1.700445e-004
5.001801905026720e-005	1.486545e-002	-5.038167e-003	7.833022e-005
5.003123836336831e-005	6.579042e-003	-1.334410e-002	2.114959e-005
5.007622826141996e-005	-2.155963e-002	-4.161194e-002	1.574939e-007
5.007828193192350e-005	-2.284196e-002	-4.290223e-002	1.284704e-007
5.007931418023886e-005	-2.348582e-002	-4.355069e-002	1.154004e-007
5.007993390559241e-005	-2.387077e-002	-4.393951e-002	1.083476e-007
5.008029552823933e-005	-2.408539e-002	-4.415703e-002	1.044559e-007
5.008046715851255e-005	-2.416466e-002	-4.424649e-002	1.026682e-007
5.008060401835873e-005	-2.420010e-002	-4.431304e-002	1.012693e-007
5.008068204096554e-005	-2.420888e-002	-4.435652e-002	1.004813e-007
5.008077267418972e-005	-2.421400e-002	-4.441227e-002	9.957486e-008
5.008086028499504e-005	-2.421803e-002	-4.446710e-002	9.870804e-008
5.008103550660570e-005	-2.422531e-002	-4.457754e-002	9.700052e-008
5.008129214630261e-005	-2.423563e-002	-4.473961e-002	9.456055e-008
5.008176965209200e-005	-2.425468e-002	-4.504125e-002	9.021341e-008
5.009730113061893e-005	-2.485436e-002	-5.481664e-002	4.503844e-008
5.011283260914585e-005	-2.542775e-002	-6.458792e-002	1.062074e-008
5.012836408767278e-005	-2.597486e-002	-7.435508e-002	-1.303970e-008
5.014389556619969e-005	-2.649568e-002	-8.411813e-002	-2.594287e-008
5.015942704472662e-005	-2.699021e-002	-9.387706e-002	-2.808877e-008
5.017495852325354e-005	-2.745846e-002	-1.036319e-001	-1.947741e-008
5.019049000178047e-005	-2.790041e-002	-1.133826e-001	-1.087737e-010
5.030006641721451e-005	-3.066115e-002	-1.822217e-001	1.327693e-011
5.042862417438184e-005	-3.313586e-002	-2.629734e-001	-9.279292e-012
5.059336936171162e-005	-3.541525e-002	-3.664287e-001	3.178058e-012
5.077361030417177e-005	-3.717799e-002	-4.795660e-001	-3.648817e-012
5.100448321540062e-005	-3.878720e-002	-6.243865e-001	1.649036e-012
5.127278821874846e-005	-4.020219e-002	-7.925035e-001	-1.755728e-012
5.163066626318063e-005	-4.174914e-002	-1.016347e+000	1.003300e-012
5.208921904950177e-005	-4.351444e-002	-1.302269e+000	-9.435641e-013
5.275969380589730e-005	-4.590976e-002	-1.717897e+000	6.114123e-013
5.475969380589729e-005	-5.242277e-002	-2.937296e+000	2.143424e-014
5.675969380589729e-005	-5.813058e-002	-4.110887e+000	1.978626e-014
5.875969380589728e-005	-6.312855e-002	-5.219646e+000	1.826490e-014
6.075969380589728e-005	-6.748824e-002	-6.246089e+000	1.686064e-014
6.275969380589727e-005	-7.125382e-002	-7.174026e+000	1.556394e-014
6.475969380589726e-005	-7.445623e-002	-7.990102e+000	-1.189921e-013
6.660000220000021e-005	-7.693546e-002	-8.636057e+000	6.451561e-006
