time	V(faa_in)	V(output)
0.000000000000000e+000	1.097053e-015	1.474701e-004
9.999999960041972e-012	4.931194e-011	1.474701e-004
1.999999992008394e-011	1.314719e-010	1.474701e-004
3.999999984016789e-011	4.336196e-010	1.474701e-004
7.999999968033578e-011	1.614163e-009	1.474701e-004
1.599999993606716e-010	6.321773e-009	1.474701e-004
3.199999987213431e-010	2.503548e-008	1.474701e-004
6.399999974426862e-010	9.065156e-008	1.474701e-004
1.000000000000000e-009	1.931958e-007	1.474701e-004
1.653142861782556e-009	5.584522e-007	1.474701e-004
2.306285723565111e-009	1.085446e-006	1.474701e-004
2.959428585347666e-009	1.774178e-006	1.474701e-004
3.612571447130222e-009	2.624648e-006	1.474701e-004
4.265714308912778e-009	3.636855e-006	1.474701e-004
4.918857170695333e-009	4.810801e-006	1.474701e-004
5.572000032477887e-009	6.146483e-006	1.474701e-004
1.018000006521150e-008	1.858853e-005	1.474701e-004
1.939600013067874e-008	5.519572e-005	1.474701e-004
3.782800026161321e-008	1.511145e-004	1.474701e-004
7.469200052348216e-008	3.696473e-004	1.474701e-004
1.023400007198839e-007	5.428506e-004	1.474701e-004
1.392040009817528e-007	7.746334e-004	1.474701e-004
1.484200010472200e-007	8.325477e-004	1.474701e-004
1.668520011781545e-007	9.483555e-004	1.474701e-004
2.037160014400235e-007	1.179975e-003	1.474701e-004
2.774440019637613e-007	1.643216e-003	1.474701e-004
4.249000030112371e-007	2.569697e-003	1.474701e-004
7.198120051061886e-007	4.422646e-003	1.474701e-004
1.309636009296092e-006	8.128463e-003	1.474701e-004
2.309636009296092e-006	1.441109e-002	1.474701e-004
3.309636009296092e-006	2.069317e-002	1.474703e-004
4.309636009296091e-006	2.697443e-002	1.474710e-004
5.309636009296091e-006	3.325463e-002	1.474734e-004
6.309636009296091e-006	3.953352e-002	1.474800e-004
7.309636009296091e-006	4.581085e-002	1.474961e-004
8.309636009296091e-006	5.208637e-002	1.475319e-004
9.309636009296092e-006	5.835983e-002	1.476044e-004
1.030963600929609e-005	6.463099e-002	1.477412e-004
1.130963600929609e-005	7.089959e-002	1.479837e-004
1.230963600929609e-005	7.716540e-002	1.483908e-004
1.330963600929609e-005	8.342816e-002	1.490429e-004
1.430963600929610e-005	8.968763e-002	1.500451e-004
1.530963600929609e-005	9.594356e-002	1.515300e-004
1.630963600929609e-005	1.021957e-001	1.536595e-004
1.730963600929610e-005	1.084438e-001	1.566250e-004
1.830963600929610e-005	1.146876e-001	1.606460e-004
1.930963600929610e-005	1.209269e-001	1.659675e-004
2.030963600929610e-005	1.271614e-001	1.728550e-004
2.130963600929610e-005	1.333909e-001	1.815874e-004
2.230963600929610e-005	1.396152e-001	1.924492e-004
2.330963600929610e-005	1.458339e-001	2.057197e-004
2.430963600929610e-005	1.520469e-001	2.216625e-004
2.530963600929610e-005	1.582538e-001	2.405129e-004
2.630963600929610e-005	1.644545e-001	2.624660e-004
2.730963600929610e-005	1.706488e-001	2.876639e-004
2.830963600929610e-005	1.768363e-001	3.161848e-004
2.930963600929610e-005	1.830168e-001	3.480328e-004
3.030963600929610e-005	1.891900e-001	3.831290e-004
3.130963600929610e-005	1.953559e-001	4.213063e-004
3.230963600929610e-005	2.015140e-001	4.623053e-004
3.330963600929609e-005	2.076641e-001	5.057746e-004
3.430963600929609e-005	2.138060e-001	5.512734e-004
3.530963600929609e-005	2.199396e-001	5.982779e-004
3.630963600929609e-005	2.260644e-001	6.461905e-004
3.730963600929608e-005	2.321803e-001	6.943528e-004
3.830963600929608e-005	2.382870e-001	7.420602e-004
3.930963600929608e-005	2.443843e-001	7.885802e-004
4.030963600929607e-005	2.504720e-001	8.331712e-004
4.130963600929607e-005	2.565498e-001	8.751031e-004
4.230963600929607e-005	2.626175e-001	9.136786e-004
4.330963600929607e-005	2.686748e-001	9.482533e-004
4.430963600929606e-005	2.747214e-001	9.782561e-004
4.530963600929606e-005	2.807573e-001	1.003207e-003
4.630963600929606e-005	2.867820e-001	1.022731e-003
4.730963600929606e-005	2.927954e-001	1.036576e-003
4.830963600929605e-005	2.987973e-001	1.044616e-003
4.930963600929605e-005	3.047874e-001	1.046859e-003
5.030963600929605e-005	3.107655e-001	1.043450e-003
5.130963600929604e-005	3.167312e-001	1.034668e-003
5.230963600929604e-005	3.226845e-001	1.020917e-003
5.330963600929604e-005	3.286251e-001	1.002716e-003
5.430963600929604e-005	3.345526e-001	9.806876e-004
5.530963600929603e-005	3.404670e-001	9.555357e-004
5.630963600929603e-005	3.463679e-001	9.280296e-004
5.730963600929603e-005	3.522551e-001	8.989799e-004
5.830963600929602e-005	3.581285e-001	8.692156e-004
5.930963600929602e-005	3.639877e-001	8.395606e-004
6.030963600929602e-005	3.698325e-001	8.108102e-004
6.130963600929602e-005	3.756627e-001	7.837088e-004
6.230963600929601e-005	3.814781e-001	7.589289e-004
6.330963600929601e-005	3.872784e-001	7.370540e-004
6.430963600929601e-005	3.930635e-001	7.185629e-004
6.530963600929600e-005	3.988330e-001	7.038179e-004
6.630963600929600e-005	4.045868e-001	6.930577e-004
6.730963600929600e-005	4.103246e-001	6.863932e-004
6.830963600929600e-005	4.160462e-001	6.838081e-004
6.930963600929599e-005	4.217514e-001	6.851631e-004
7.030963600929599e-005	4.274399e-001	6.902044e-004
7.130963600929599e-005	4.331116e-001	6.985749e-004
7.230963600929599e-005	4.387662e-001	7.098294e-004
7.330963600929598e-005	4.444034e-001	7.234513e-004
7.430963600929598e-005	4.500231e-001	7.388717e-004
7.530963600929598e-005	4.556250e-001	7.554900e-004
7.630963600929597e-005	4.612090e-001	7.726940e-004
7.730963600929597e-005	4.667747e-001	7.898803e-004
7.830963600929597e-005	4.723220e-001	8.064743e-004
7.930963600929597e-005	4.778507e-001	8.219479e-004
8.030963600929596e-005	4.833605e-001	8.358353e-004
8.130963600929596e-005	4.888512e-001	8.477462e-004
8.230963600929596e-005	4.943226e-001	8.573761e-004
8.330963600929595e-005	4.997745e-001	8.645139e-004
8.430963600929595e-005	5.052066e-001	8.690446e-004
8.530963600929595e-005	5.106189e-001	8.709498e-004
8.630963600929595e-005	5.160110e-001	8.703050e-004
8.730963600929594e-005	5.213827e-001	8.672731e-004
8.830963600929594e-005	5.267338e-001	8.620949e-004
8.930963600929594e-005	5.320641e-001	8.550780e-004
9.030963600929593e-005	5.373734e-001	8.465836e-004
9.130963600929593e-005	5.426615e-001	8.370110e-004
9.230963600929593e-005	5.479282e-001	8.267822e-004
9.330963600929593e-005	5.531732e-001	8.163261e-004
9.430963600929592e-005	5.583965e-001	8.060626e-004
9.530963600929592e-005	5.635976e-001	7.963878e-004
9.630963600929592e-005	5.687765e-001	7.876607e-004
9.730963600929592e-005	5.739329e-001	7.801915e-004
9.830963600929591e-005	5.790668e-001	7.742319e-004
9.930963600929591e-005	5.841777e-001	7.699682e-004
1.003096360092959e-004	5.892656e-001	7.675171e-004
1.013096360092959e-004	5.943302e-001	7.669233e-004
1.023096360092959e-004	5.993713e-001	7.681610e-004
1.033096360092959e-004	6.043888e-001	7.711371e-004
1.043096360092959e-004	6.093825e-001	7.756967e-004
1.053096360092959e-004	6.143520e-001	7.816314e-004
1.063096360092959e-004	6.192973e-001	7.886890e-004
1.073096360092959e-004	6.242182e-001	7.965836e-004
1.083096360092959e-004	6.291144e-001	8.050079e-004
1.093096360092959e-004	6.339858e-001	8.136455e-004
1.103096360092959e-004	6.388322e-001	8.221827e-004
1.113096360092959e-004	6.436533e-001	8.303200e-004
1.123096360092959e-004	6.484491e-001	8.377832e-004
1.133096360092959e-004	6.532192e-001	8.443325e-004
1.143096360092959e-004	6.579635e-001	8.497707e-004
1.153096360092959e-004	6.626819e-001	8.539488e-004
1.163096360092959e-004	6.673741e-001	8.567704e-004
1.173096360092959e-004	6.720400e-001	8.581938e-004
1.183096360092959e-004	6.766793e-001	8.582312e-004
1.193096360092959e-004	6.812919e-001	8.569472e-004
1.203096360092959e-004	6.858776e-001	8.544545e-004
1.213096360092959e-004	6.904362e-001	8.509082e-004
1.223096360092958e-004	6.949676e-001	8.464988e-004
1.233096360092958e-004	6.994716e-001	8.414435e-004
1.243096360092958e-004	7.039479e-001	8.359780e-004
1.253096360092958e-004	7.083964e-001	8.303460e-004
1.263096360092958e-004	7.128170e-001	8.247907e-004
1.273096360092958e-004	7.172095e-001	8.195452e-004
1.283096360092958e-004	7.215736e-001	8.148240e-004
1.293096360092958e-004	7.259092e-001	8.108153e-004
1.303096360092958e-004	7.302162e-001	8.076750e-004
1.313096360092958e-004	7.344943e-001	8.055212e-004
1.323096360092958e-004	7.387435e-001	8.044313e-004
1.333096360092958e-004	7.429635e-001	8.044400e-004
1.343096360092958e-004	7.471541e-001	8.055391e-004
1.353096360092958e-004	7.513153e-001	8.076790e-004
1.363096360092958e-004	7.554468e-001	8.107718e-004
1.373096360092958e-004	7.595485e-001	8.146958e-004
1.383096360092958e-004	7.636202e-001	8.193007e-004
1.393096360092958e-004	7.676618e-001	8.244143e-004
1.413096360092958e-004	7.756537e-001	8.354122e-004
1.423096360092958e-004	7.796039e-001	8.409079e-004
1.433096360092958e-004	7.835233e-001	8.461499e-004
1.443096360092958e-004	7.874117e-001	8.509660e-004
1.453096360092958e-004	7.912691e-001	8.552043e-004
1.463096360092958e-004	7.950952e-001	8.587391e-004
1.473096360092958e-004	7.988899e-001	8.614740e-004
1.483096360092958e-004	8.026531e-001	8.633458e-004
1.493096360092958e-004	8.063846e-001	8.643253e-004
1.503096360092958e-004	8.100843e-001	8.644179e-004
1.513096360092958e-004	8.137519e-001	8.636626e-004
1.523096360092958e-004	8.173875e-001	8.621291e-004
1.533096360092958e-004	8.209908e-001	8.599153e-004
1.543096360092958e-004	8.245617e-001	8.571420e-004
1.553096360092958e-004	8.281000e-001	8.539485e-004
1.573096360092958e-004	8.350785e-001	8.469133e-004
1.583096360092957e-004	8.385183e-001	8.433881e-004
1.593096360092957e-004	8.419250e-001	8.400631e-004
1.603096360092957e-004	8.452985e-001	8.370797e-004
1.613096360092957e-004	8.486387e-001	8.345630e-004
1.623096360092957e-004	8.519453e-001	8.326173e-004
1.633096360092957e-004	8.552183e-001	8.313228e-004
1.643096360092957e-004	8.584576e-001	8.307333e-004
1.653096360092957e-004	8.616629e-001	8.308748e-004
1.663096360092957e-004	8.648342e-001	8.317446e-004
1.673096360092957e-004	8.679714e-001	8.333133e-004
1.683096360092957e-004	8.710743e-001	8.355252e-004
1.693096360092957e-004	8.741428e-001	8.383020e-004
1.703096360092957e-004	8.771768e-001	8.415457e-004
1.713096360092957e-004	8.801762e-001	8.451433e-004
1.733096360092957e-004	8.860706e-001	8.528990e-004
1.753096360092957e-004	8.918251e-001	8.605385e-004
1.763096360092957e-004	8.946496e-001	8.640059e-004
1.773096360092957e-004	8.974388e-001	8.670946e-004
1.783096360092957e-004	9.001926e-001	8.697165e-004
1.793096360092957e-004	9.029107e-001	8.718029e-004
1.803096360092957e-004	9.055933e-001	8.733069e-004
1.813096360092957e-004	9.082401e-001	8.742040e-004
1.823096360092957e-004	9.108511e-001	8.744933e-004
1.833096360092957e-004	9.134260e-001	8.741962e-004
1.843096360092957e-004	9.159650e-001	8.733555e-004
1.853096360092957e-004	9.184678e-001	8.720335e-004
1.863096360092957e-004	9.209343e-001	8.703084e-004
1.873096360092957e-004	9.233644e-001	8.682717e-004
1.893096360092957e-004	9.281152e-001	8.636729e-004
1.913096360092957e-004	9.327196e-001	8.590837e-004
1.923096360092957e-004	9.349665e-001	8.570490e-004
1.933096360092957e-004	9.371766e-001	8.553081e-004
1.943096360092956e-004	9.393497e-001	8.539361e-004
1.953096360092956e-004	9.414856e-001	8.529918e-004
1.963096360092956e-004	9.435844e-001	8.525170e-004
1.973096360092956e-004	9.456459e-001	8.525349e-004
1.983096360092956e-004	9.476702e-001	8.530495e-004
1.993096360092956e-004	9.496570e-001	8.540462e-004
2.003096360092956e-004	9.516063e-001	8.554926e-004
2.013096360092956e-004	9.535180e-001	8.573403e-004
2.023096360092956e-004	9.553921e-001	8.595272e-004
2.043096360092956e-004	9.590271e-001	8.646158e-004
2.063096360092956e-004	9.625106e-001	8.700916e-004
2.083096360092956e-004	9.658422e-001	8.752616e-004
2.103096360092956e-004	9.690212e-001	8.795093e-004
2.113096360092956e-004	9.705534e-001	8.811372e-004
2.123096360092956e-004	9.720472e-001	8.823806e-004
2.133096360092956e-004	9.735027e-001	8.832177e-004
2.143096360092956e-004	9.749197e-001	8.836422e-004
2.153096360092956e-004	9.762983e-001	8.836634e-004
2.163096360092956e-004	9.776383e-001	8.833050e-004
2.173096360092956e-004	9.789397e-001	8.826044e-004
2.183096360092956e-004	9.802025e-001	8.816104e-004
2.203096360092956e-004	9.826119e-001	8.789842e-004
2.223096360092956e-004	9.848661e-001	8.759652e-004
2.233096360092956e-004	9.859349e-001	8.744870e-004
2.243096360092956e-004	9.869648e-001	8.731212e-004
2.253096360092956e-004	9.879557e-001	8.719293e-004
2.263096360092956e-004	9.889076e-001	8.709651e-004
2.273096360092956e-004	9.898205e-001	8.702721e-004
2.283096360092956e-004	9.906943e-001	8.698825e-004
2.293096360092956e-004	9.915290e-001	8.698167e-004
2.303096360092955e-004	9.923246e-001	8.700819e-004
2.323096360092955e-004	9.937981e-001	8.715726e-004
2.343096360092955e-004	9.951147e-001	8.741737e-004
2.363096360092955e-004	9.962742e-001	8.775491e-004
2.383096360092955e-004	9.972764e-001	8.812647e-004
2.403096360092955e-004	9.981211e-001	8.848560e-004
2.413096360092955e-004	9.984843e-001	8.864690e-004
2.423096360092955e-004	9.988081e-001	8.878979e-004
2.433096360092955e-004	9.990925e-001	8.891055e-004
2.443096360092955e-004	9.993374e-001	8.900638e-004
2.463096360092956e-004	9.997090e-001	8.911694e-004
2.473096360092956e-004	9.998356e-001	8.913112e-004
2.493096360092957e-004	9.999703e-001	8.908334e-004
2.513096360092957e-004	9.999471e-001	8.895252e-004
2.533096360092958e-004	9.997660e-001	8.876991e-004
2.553096360092958e-004	9.994270e-001	8.857261e-004
2.573096360092959e-004	9.989302e-001	8.839782e-004
2.593096360092959e-004	9.982757e-001	8.827740e-004
2.613096360092959e-004	9.974635e-001	8.823351e-004
2.633096360092960e-004	9.964939e-001	8.827584e-004
2.653096360092960e-004	9.953668e-001	8.840082e-004
2.683096360092961e-004	9.933816e-001	8.870633e-004
2.713096360092962e-004	9.910434e-001	8.907293e-004
2.733096360092962e-004	9.892890e-001	8.930060e-004
2.753096360092963e-004	9.873784e-001	8.948331e-004
2.773096360092963e-004	9.853117e-001	8.960216e-004
2.793096360092964e-004	9.830896e-001	8.964831e-004
2.813096360092964e-004	9.807122e-001	8.962373e-004
2.843096360092965e-004	9.768558e-001	8.948266e-004
2.873096360092966e-004	9.726523e-001	8.928098e-004
2.903096360092967e-004	9.681033e-001	8.910160e-004
2.923096360092967e-004	9.648794e-001	8.902961e-004
2.953096360092968e-004	9.597581e-001	8.902310e-004
2.983096360092968e-004	9.542958e-001	8.913926e-004
2.995953502950111e-004	9.518504e-001	8.923200e-004
3.008810645807255e-004	9.493434e-001	8.932316e-004
3.021667788664398e-004	9.467747e-001	8.941272e-004
3.034524931521541e-004	9.441443e-001	8.950070e-004
3.047382074378684e-004	9.414521e-001	8.958709e-004
3.060239217235828e-004	9.386983e-001	8.967188e-004
3.073096360092971e-004	9.358828e-001	8.975509e-004
3.103096360092971e-004	9.290770e-001	8.984918e-004
3.133096360092972e-004	9.219413e-001	8.983408e-004
3.163096360092973e-004	9.144779e-001	8.972706e-004
3.177382074378687e-004	9.108088e-001	8.964317e-004
3.191667788664402e-004	9.070670e-001	8.956782e-004
3.205953502950117e-004	9.032527e-001	8.950103e-004
3.220239217235832e-004	8.993657e-001	8.944278e-004
3.234524931521546e-004	8.954061e-001	8.939307e-004
3.248810645807261e-004	8.913739e-001	8.935192e-004
3.263096360092975e-004	8.872691e-001	8.931931e-004
3.293096360092976e-004	8.784184e-001	8.933496e-004
3.308810645807262e-004	8.736564e-001	8.938858e-004
3.324524931521548e-004	8.688104e-001	8.944175e-004
3.340239217235834e-004	8.638804e-001	8.949445e-004
3.355953502950120e-004	8.588665e-001	8.954669e-004
3.371667788664407e-004	8.537686e-001	8.959848e-004
3.387382074378693e-004	8.485867e-001	8.964981e-004
3.403096360092979e-004	8.433208e-001	8.970068e-004
3.421667788664408e-004	8.369909e-001	8.970591e-004
3.440239217235837e-004	8.305491e-001	8.969294e-004
3.458810645807266e-004	8.239957e-001	8.966177e-004
3.477382074378695e-004	8.173305e-001	8.961240e-004
3.495953502950124e-004	8.105536e-001	8.954484e-004
3.514524931521553e-004	8.036649e-001	8.945908e-004
3.533096360092982e-004	7.966645e-001	8.935512e-004
3.555953502950125e-004	7.878980e-001	8.926965e-004
3.578810645807269e-004	7.789736e-001	8.920645e-004
3.601667788664412e-004	7.698914e-001	8.916552e-004
3.624524931521555e-004	7.606514e-001	8.914688e-004
3.647382074378699e-004	7.512537e-001	8.915050e-004
3.670239217235842e-004	7.416981e-001	8.917641e-004
3.693096360092986e-004	7.319847e-001	8.922459e-004
3.717382074378700e-004	7.214976e-001	8.923095e-004
3.741667788664416e-004	7.108488e-001	8.921412e-004
3.765953502950130e-004	7.000384e-001	8.917411e-004
3.790239217235845e-004	6.890662e-001	8.911091e-004
3.814524931521560e-004	6.779324e-001	8.902452e-004
3.838810645807275e-004	6.666368e-001	8.891494e-004
3.863096360092990e-004	6.551796e-001	8.878218e-004
3.887382074378705e-004	6.435693e-001	8.869276e-004
3.911667788664420e-004	6.318162e-001	8.861667e-004
3.935953502950134e-004	6.199201e-001	8.855393e-004
3.960239217235850e-004	6.078811e-001	8.850452e-004
3.984524931521564e-004	5.956991e-001	8.846845e-004
4.008810645807279e-004	5.833743e-001	8.844571e-004
4.033096360092994e-004	5.709066e-001	8.843632e-004
4.057382074378709e-004	5.583055e-001	8.838009e-004
4.081667788664424e-004	5.455818e-001	8.831099e-004
4.105953502950138e-004	5.327357e-001	8.822901e-004
4.130239217235854e-004	5.197671e-001	8.813416e-004
4.154524931521568e-004	5.066759e-001	8.802643e-004
4.178810645807283e-004	4.934622e-001	8.790583e-004
4.203096360092998e-004	4.801261e-001	8.777236e-004
4.228810645807285e-004	4.658822e-001	8.767573e-004
4.254524931521571e-004	4.515262e-001	8.758393e-004
4.280239217235857e-004	4.370580e-001	8.749694e-004
4.305953502950143e-004	4.224777e-001	8.741478e-004
4.331667788664430e-004	4.077852e-001	8.733744e-004
4.357382074378716e-004	3.929805e-001	8.726492e-004
4.383096360093003e-004	3.780637e-001	8.719722e-004
4.410239217235860e-004	3.622096e-001	8.707301e-004
4.437382074378718e-004	3.462618e-001	8.694562e-004
4.464524931521576e-004	3.302203e-001	8.681504e-004
4.491667788664434e-004	3.140852e-001	8.668127e-004
4.518810645807292e-004	2.978564e-001	8.654432e-004
4.545953502950149e-004	2.815339e-001	8.640419e-004
4.573096360093007e-004	2.651177e-001	8.626087e-004
4.603096360093008e-004	2.468807e-001	8.614826e-004
4.633096360093009e-004	2.285722e-001	8.602764e-004
4.663096360093009e-004	2.101924e-001	8.589899e-004
4.693096360093010e-004	1.917413e-001	8.576233e-004
4.723096360093011e-004	1.732187e-001	8.561766e-004
4.753096360093012e-004	1.546248e-001	8.546496e-004
4.783096360093012e-004	1.359595e-001	8.530425e-004
4.811667788664442e-004	1.181392e-001	8.513297e-004
4.840239217235871e-004	1.002952e-001	8.496721e-004
4.868810645807300e-004	8.242763e-002	8.480698e-004
4.897382074378730e-004	6.453635e-002	8.465229e-004
4.925953502950158e-004	4.662140e-002	8.450312e-004
4.954524931521588e-004	2.868277e-002	8.435949e-004
4.983096360093017e-004	1.072048e-002	8.422138e-004
4.990020000000000e-004	6.370511e-003	8.418690e-004
5.000010000000000e-004	9.371488e-005	8.413643e-004
5.000018250000001e-004	8.853130e-005	8.413639e-004
5.000019000000000e-004	8.806006e-005	8.413639e-004
5.000020000000000e-004	8.743176e-005	8.413638e-004
5.010463887054210e-004	-6.475166e-003	8.408286e-004
5.020907774108420e-004	-1.303678e-002	8.402796e-004
5.031351661162630e-004	-1.959743e-002	8.397168e-004
5.041795548216842e-004	-2.615709e-002	8.391401e-004
5.052239435271051e-004	-3.271578e-002	8.385495e-004
5.062683322325261e-004	-3.927348e-002	8.379452e-004
5.073127209379471e-004	-4.583021e-002	8.373270e-004
5.093127209379472e-004	-5.837918e-002	8.360543e-004
5.113127209379472e-004	-7.091893e-002	8.345698e-004
5.133127209379473e-004	-8.344748e-002	8.326017e-004
5.163127209379474e-004	-1.022150e-001	8.275013e-004
5.193127209379474e-004	-1.209462e-001	8.167800e-004
5.223127209379475e-004	-1.396344e-001	7.952611e-004
5.243127209379476e-004	-1.520660e-001	7.717452e-004
5.263127209379476e-004	-1.644737e-001	7.386513e-004
5.283127209379477e-004	-1.768553e-001	6.944218e-004
5.313127209379477e-004	-1.953749e-001	6.055105e-004
5.343127209379478e-004	-2.138250e-001	4.909948e-004
5.373127209379479e-004	-2.321991e-001	3.580091e-004
