time	V(out)	V(n001)	V(n002)
0.000000000000000e+000	4.563358e-004	3.499800e-007	0.000000e+000
7.714285742269240e-014	4.563358e-004	3.500111e-007	3.443013e-006
1.542857148453848e-013	4.563358e-004	3.501074e-007	1.408332e-005
2.314285722680772e-013	4.563358e-004	3.502688e-007	3.192093e-005
3.085714296907696e-013	4.563358e-004	3.504953e-007	5.695583e-005
3.857142871134620e-013	4.563358e-004	3.507870e-007	8.918803e-005
4.628571445361544e-013	4.563358e-004	3.511437e-007	1.286175e-004
5.400000019588466e-013	4.563358e-004	3.515655e-007	1.752443e-004
1.000000000000000e-012	4.563358e-004	3.545038e-007	4.999914e-004
1.387265218560048e-011	4.563351e-004	1.264806e-006	1.336324e-002
2.674530437120096e-011	4.563371e-004	3.845520e-006	2.620799e-002
3.961795655680145e-011	4.563417e-004	8.096647e-006	3.903426e-002
5.249060874240193e-011	4.563490e-004	1.401819e-005	5.184204e-002
6.536326092800240e-011	4.563590e-004	2.161014e-005	6.463133e-002
7.823591311360288e-011	4.563717e-004	3.087250e-005	7.740213e-002
9.110856529920334e-011	4.563870e-004	4.180528e-005	9.015445e-002
1.513388129750909e-010	4.565264e-004	1.166584e-004	1.495590e-001
2.513388129750909e-010	4.569451e-004	3.051954e-004	2.474759e-001
3.513388129750909e-010	4.576157e-004	5.728536e-004	3.445158e-001
4.513388129750909e-010	4.585778e-004	9.276075e-004	4.405900e-001
5.513388129750909e-010	4.598355e-004	1.368586e-003	5.357082e-001
6.513388129750909e-010	4.613881e-004	1.894930e-003	6.298798e-001
7.513388129750908e-010	4.632334e-004	2.505793e-003	7.231144e-001
8.513388129750908e-010	4.653688e-004	3.200335e-003	8.154212e-001
9.513388129750908e-010	4.677913e-004	3.977726e-003	9.068095e-001
1.051338812975091e-009	4.704982e-004	4.837143e-003	9.972884e-001
1.151338812975091e-009	4.734866e-004	5.777773e-003	1.086867e+000
1.251338812975091e-009	4.767538e-004	6.798808e-003	1.175554e+000
1.351338812975091e-009	4.802970e-004	7.899450e-003	1.263359e+000
1.451338812975091e-009	4.841134e-004	9.078909e-003	1.350290e+000
1.551338812975091e-009	4.882003e-004	1.033640e-002	1.436355e+000
1.751338812975091e-009	4.971751e-004	1.308240e-002	1.605926e+000
1.951338812975091e-009	5.072001e-004	1.613133e-002	1.772139e+000
2.151338812975092e-009	5.182546e-004	1.947720e-002	1.935061e+000
2.351338812975092e-009	5.303181e-004	2.311414e-002	2.094756e+000
2.651338812975092e-009	5.502618e-004	2.910275e-002	2.328389e+000
2.951338812975092e-009	5.723654e-004	3.571437e-002	2.555116e+000
3.251338812975092e-009	5.965650e-004	4.293060e-002	2.775142e+000
3.708481670117950e-009	6.378030e-004	5.518514e-002	3.096476e+000
4.165624527260808e-009	6.830741e-004	6.860301e-002	3.404912e+000
4.622767384403665e-009	7.323783e-004	8.318420e-002	3.700450e+000
5.079910241546523e-009	7.857155e-004	9.892872e-002	3.983089e+000
5.537053098689381e-009	8.430857e-004	1.158366e-001	4.252831e+000
5.994195955832238e-009	9.044891e-004	1.339077e-001	4.509674e+000
6.451338812975095e-009	9.699254e-004	1.531422e-001	4.753620e+000
7.237053098689375e-009	1.091124e-003	1.887200e-001	5.145003e+000
8.022767384403657e-009	1.220045e-003	2.265242e-001	5.511608e+000
8.808481670117938e-009	1.356686e-003	2.665547e-001	5.853433e+000
9.594195955832219e-009	1.501049e-003	3.088117e-001	6.170480e+000
1.037991024154650e-008	1.653133e-003	3.532951e-001	6.462747e+000
1.116562452726078e-008	1.812938e-003	4.000049e-001	6.730235e+000
1.195133881297506e-008	1.980464e-003	4.489412e-001	6.972945e+000
1.336562452726078e-008	2.298196e-003	5.416943e-001	7.357967e+000
1.477991024154650e-008	2.627387e-003	6.377423e-001	7.705218e+000
1.619419595583222e-008	2.968037e-003	7.370852e-001	8.014695e+000
1.760848167011794e-008	3.320145e-003	8.397229e-001	8.286401e+000
1.902276738440366e-008	3.683712e-003	9.456555e-001	8.520334e+000
2.043705309868938e-008	4.058738e-003	1.054883e+000	8.716494e+000
2.185133881297510e-008	4.445222e-003	1.167405e+000	8.874882e+000
2.435133881297512e-008	5.144126e-003	1.370822e+000	9.102086e+000
2.685133881297514e-008	5.849928e-003	1.576138e+000	9.297798e+000
2.935133881297517e-008	6.562627e-003	1.783355e+000	9.462016e+000
3.185133881297519e-008	7.282222e-003	1.992472e+000	9.594741e+000
3.435133881297522e-008	8.008716e-003	2.203489e+000	9.695974e+000
3.685133881297524e-008	8.742106e-003	2.416407e+000	9.765713e+000
3.935133881297526e-008	9.482393e-003	2.631224e+000	9.803959e+000
4.520848167011798e-008	1.121591e-002	3.134008e+000	9.869288e+000
5.106562452726069e-008	1.291535e-002	3.625791e+000	9.921990e+000
5.692276738440341e-008	1.458070e-002	4.106571e+000	9.962065e+000
6.277991024154612e-008	1.621196e-002	4.576350e+000	9.989513e+000
6.863705309868883e-008	1.780914e-002	5.035127e+000	1.000433e+001
7.449419595583155e-008	1.937223e-002	5.482902e+000	1.000653e+001
8.035133881297425e-008	2.090123e-002	5.919675e+000	9.996097e+000
8.310848167011695e-008	2.159750e-002	6.117832e+000	9.996799e+000
8.586562452725965e-008	2.228096e-002	6.311898e+000	9.997399e+000
8.862276738440236e-008	2.295161e-002	6.501872e+000	9.997897e+000
9.137991024154506e-008	2.360944e-002	6.687754e+000	9.998292e+000
9.413705309868775e-008	2.425447e-002	6.869544e+000	9.998585e+000
9.689419595583045e-008	2.488668e-002	7.047242e+000	9.998775e+000
9.965133881297315e-008	2.550609e-002	7.220849e+000	9.998863e+000
9.975133881297314e-008	2.552826e-002	7.227051e+000	9.998868e+000
1.020386389825457e-007	2.603071e-002	7.367433e+000	1.000241e+001
1.043259391521182e-007	2.652285e-002	7.504519e+000	1.000379e+001
1.066132393216907e-007	2.700466e-002	7.638309e+000	1.000301e+001
1.089005394912632e-007	2.747615e-002	7.768801e+000	1.000008e+001
1.111878396608358e-007	2.793731e-002	7.895997e+000	9.994985e+000
1.134751398304083e-007	2.838816e-002	8.019897e+000	9.987733e+000
1.157624399999808e-007	2.882868e-002	8.140499e+000	9.978322e+000
1.166686342856759e-007	2.899848e-002	8.187271e+000	9.128057e+000
1.175748285713709e-007	2.916486e-002	8.233484e+000	8.338021e+000
1.184810228570660e-007	2.932781e-002	8.279140e+000	7.608212e+000
1.193872171427611e-007	2.948733e-002	8.324238e+000	6.938631e+000
1.202934114284561e-007	2.964343e-002	8.368778e+000	6.329278e+000
1.211996057141512e-007	2.979609e-002	8.412761e+000	5.780154e+000
1.221057999998463e-007	2.994533e-002	8.456185e+000	5.291257e+000
1.230200857141321e-007	3.009303e-002	8.499421e+000	4.836612e+000
1.239343714284178e-007	3.023797e-002	8.542068e+000	4.414403e+000
1.248486571427036e-007	3.038017e-002	8.584126e+000	4.024631e+000
1.257629428569894e-007	3.051962e-002	8.625595e+000	3.667295e+000
1.266772285712752e-007	3.065632e-002	8.666475e+000	3.342395e+000
1.275915142855610e-007	3.079027e-002	8.706767e+000	3.049933e+000
1.285057999998468e-007	3.092148e-002	8.746469e+000	2.789906e+000
1.294200857141326e-007	3.105025e-002	8.785573e+000	2.550186e+000
1.303343714284183e-007	3.117664e-002	8.824070e+000	2.327570e+000
1.312486571427041e-007	3.130065e-002	8.861958e+000	2.122055e+000
1.321629428569899e-007	3.142229e-002	8.899239e+000	1.933644e+000
1.330772285712757e-007	3.154154e-002	8.935912e+000	1.762335e+000
1.339915142855615e-007	3.165842e-002	8.971977e+000	1.608129e+000
1.349057999998472e-007	3.177293e-002	9.007435e+000	1.471026e+000
1.358200857141330e-007	3.188520e-002	9.042276e+000	1.344629e+000
1.367343714284188e-007	3.199527e-002	9.076492e+000	1.227251e+000
1.376486571427046e-007	3.210314e-002	9.110084e+000	1.118890e+000
1.385629428569904e-007	3.220880e-002	9.143052e+000	1.019547e+000
1.394772285712762e-007	3.231226e-002	9.175395e+000	9.292214e-001
1.403915142855619e-007	3.241351e-002	9.207113e+000	8.479136e-001
1.413057999998477e-007	3.251256e-002	9.238207e+000	7.756234e-001
1.422200857141335e-007	3.260947e-002	9.268668e+000	7.089789e-001
1.431343714284193e-007	3.270425e-002	9.298490e+000	6.470890e-001
1.440486571427051e-007	3.279690e-002	9.327673e+000	5.899539e-001
1.449629428569909e-007	3.288742e-002	9.356217e+000	5.375735e-001
1.458772285712766e-007	3.297581e-002	9.384121e+000	4.899479e-001
1.467915142855624e-007	3.306207e-002	9.411386e+000	4.470769e-001
1.477057999998482e-007	3.314619e-002	9.438012e+000	4.089607e-001
1.486200857141340e-007	3.322821e-002	9.463991e+000	3.738212e-001
1.495343714284198e-007	3.330812e-002	9.489319e+000	3.411888e-001
1.504486571427055e-007	3.338593e-002	9.513994e+000	3.110633e-001
1.513629428569913e-007	3.346163e-002	9.538018e+000	2.834448e-001
1.522772285712771e-007	3.353522e-002	9.561390e+000	2.583334e-001
1.531915142855629e-007	3.360670e-002	9.584111e+000	2.357290e-001
1.541057999998487e-007	3.367607e-002	9.606179e+000	2.156315e-001
1.550200857141345e-007	3.374335e-002	9.627589e+000	1.971036e-001
1.559343714284202e-007	3.380851e-002	9.648337e+000	1.798976e-001
1.568486571427060e-007	3.387157e-002	9.668423e+000	1.640135e-001
1.577629428569918e-007	3.393252e-002	9.687847e+000	1.494511e-001
1.586772285712776e-007	3.399136e-002	9.706608e+000	1.362107e-001
1.595915142855634e-007	3.404810e-002	9.724708e+000	1.242921e-001
1.605057999998492e-007	3.410272e-002	9.742145e+000	1.136954e-001
1.614343714284207e-007	3.415604e-002	9.759171e+000	1.037853e-001
1.623629428569922e-007	3.420718e-002	9.775506e+000	9.459074e-002
1.632915142855637e-007	3.425614e-002	9.791149e+000	8.611173e-002
1.642200857141352e-007	3.430292e-002	9.806101e+000	7.834829e-002
1.651486571427067e-007	3.434751e-002	9.820361e+000	7.130041e-002
1.660772285712782e-007	3.438992e-002	9.833930e+000	6.496808e-002
1.670057999998497e-007	3.443015e-002	9.846807e+000	5.935132e-002
1.679486571427069e-007	3.446875e-002	9.859169e+000	5.410465e-002
1.688915142855641e-007	3.450510e-002	9.870813e+000	4.924130e-002
1.698343714284213e-007	3.453919e-002	9.881737e+000	4.476126e-002
1.707772285712785e-007	3.457102e-002	9.891942e+000	4.066455e-002
1.717200857141357e-007	3.460058e-002	9.901428e+000	3.695114e-002
1.726629428569929e-007	3.462789e-002	9.910194e+000	3.362106e-002
1.736057999998501e-007	3.465294e-002	9.918241e+000	3.067429e-002
1.745772285712788e-007	3.467637e-002	9.925775e+000	2.788714e-002
1.755486571427074e-007	3.469740e-002	9.932542e+000	2.530833e-002
1.765200857141361e-007	3.471602e-002	9.938540e+000	2.293786e-002
1.774915142855647e-007	3.473224e-002	9.943771e+000	2.077572e-002
1.784629428569934e-007	3.474604e-002	9.948234e+000	1.882192e-002
1.794343714284220e-007	3.475744e-002	9.951930e+000	1.707645e-002
1.804057999998507e-007	3.476644e-002	9.954857e+000	1.553932e-002
1.814343714284222e-007	3.477333e-002	9.957117e+000	1.405150e-002
1.824629428569937e-007	3.477752e-002	9.958515e+000	1.267982e-002
1.834915142855652e-007	3.477901e-002	9.959050e+000	1.142426e-002
1.845200857141367e-007	3.477781e-002	9.958722e+000	1.028484e-002
1.855486571427082e-007	3.477390e-002	9.957533e+000	9.261559e-003
1.865772285712797e-007	3.476729e-002	9.955481e+000	8.354409e-003
1.876057999998512e-007	3.475799e-002	9.952566e+000	7.563393e-003
1.887343714284227e-007	3.474466e-002	9.948375e+000	6.775626e-003
1.898629428569942e-007	3.472810e-002	9.943149e+000	6.053734e-003
1.909915142855657e-007	3.470830e-002	9.936886e+000	5.397717e-003
1.921200857141373e-007	3.468526e-002	9.929588e+000	4.807576e-003
1.932486571427088e-007	3.465897e-002	9.921255e+000	4.283310e-003
1.943772285712803e-007	3.462945e-002	9.911886e+000	3.824919e-003
1.955057999998518e-007	3.459668e-002	9.901481e+000	3.432403e-003
1.959772285712804e-007	3.458204e-002	9.896830e+000	3.275114e-003
1.964486571427090e-007	3.456684e-002	9.891999e+000	3.124309e-003
1.969200857141376e-007	3.455107e-002	9.886988e+000	2.979991e-003
1.973915142855662e-007	3.453474e-002	9.881797e+000	2.842158e-003
1.978629428569948e-007	3.451785e-002	9.876426e+000	2.710812e-003
1.983343714284234e-007	3.450040e-002	9.870875e+000	2.585950e-003
1.988057999998520e-007	3.448238e-002	9.865145e+000	2.467575e-003
1.989057999998520e-007	3.447849e-002	9.863906e+000	2.443020e-003
2.003772285712807e-007	3.441824e-002	9.844738e+000	2.121364e-003
2.018486571427094e-007	3.435257e-002	9.823836e+000	1.832121e-003
2.033200857141381e-007	3.428147e-002	9.801199e+000	1.575291e-003
2.047915142855668e-007	3.420495e-002	9.776827e+000	1.350875e-003
2.062629428569955e-007	3.412300e-002	9.750720e+000	1.158872e-003
2.077343714284242e-007	3.403562e-002	9.722878e+000	9.992834e-004
2.092057999998528e-007	3.394281e-002	9.693302e+000	8.721079e-004
2.112915142855673e-007	3.380196e-002	9.648405e+000	7.187612e-004
2.133772285712817e-007	3.365051e-002	9.600118e+000	5.846445e-004
2.154629428569962e-007	3.348846e-002	9.548442e+000	4.697580e-004
2.175486571427106e-007	3.331580e-002	9.493376e+000	3.741016e-004
2.196343714284251e-007	3.313254e-002	9.434921e+000	2.976752e-004
2.217200857141395e-007	3.293868e-002	9.373077e+000	2.404790e-004
2.238057999998539e-007	3.273422e-002	9.307843e+000	2.025129e-004
2.249021240913604e-007	3.262263e-002	9.272241e+000	1.813528e-004
2.259984481828668e-007	3.250822e-002	9.235735e+000	1.622532e-004
2.270947722743733e-007	3.239099e-002	9.198327e+000	1.452143e-004
2.281910963658798e-007	3.227093e-002	9.160016e+000	1.302359e-004
2.292874204573862e-007	3.214805e-002	9.120801e+000	1.173182e-004
2.303837445488927e-007	3.202235e-002	9.080684e+000	1.064610e-004
2.314800686403991e-007	3.189382e-002	9.039664e+000	9.766444e-005
2.314802763209502e-007	3.189379e-002	9.039657e+000	1.391824e-004
2.314805086409878e-007	3.189376e-002	9.039648e+000	2.505977e-004
2.314810000000000e-007	3.189371e-002	9.039629e+000	5.942353e-004
2.317537696182601e-007	3.186142e-002	9.029286e+000	2.690926e-001
2.320265392365203e-007	3.182914e-002	9.018888e+000	5.308468e-001
2.322993088547804e-007	3.179689e-002	9.008436e+000	7.858567e-001
2.325720784730405e-007	3.176465e-002	8.997929e+000	1.034122e+000
2.328448480913006e-007	3.173243e-002	8.987367e+000	1.275644e+000
2.331176177095608e-007	3.170023e-002	8.976750e+000	1.510421e+000
2.333903873278209e-007	3.166804e-002	8.966079e+000	1.738454e+000
2.340761016135352e-007	3.158724e-002	8.939008e+000	2.280545e+000
2.347618158992496e-007	3.150623e-002	8.911596e+000	2.791909e+000
2.354475301849639e-007	3.142500e-002	8.883843e+000	3.272546e+000
2.361332444706782e-007	3.134356e-002	8.855749e+000	3.722455e+000
2.368189587563926e-007	3.126192e-002	8.827313e+000	4.141638e+000
2.375046730421069e-007	3.118006e-002	8.798536e+000	4.530094e+000
2.381903873278213e-007	3.109799e-002	8.769418e+000	4.887823e+000
2.393046730421071e-007	3.096388e-002	8.721372e+000	5.414127e+000
2.404189587563929e-007	3.082825e-002	8.672452e+000	5.896830e+000
2.415332444706787e-007	3.069111e-002	8.622659e+000	6.335931e+000
2.426475301849644e-007	3.055244e-002	8.571992e+000	6.731431e+000
2.437618158992502e-007	3.041226e-002	8.520452e+000	7.083330e+000
2.448761016135360e-007	3.027055e-002	8.468037e+000	7.391627e+000
2.459903873278218e-007	3.012733e-002	8.414749e+000	7.656323e+000
2.477332444706791e-007	2.989945e-002	8.329652e+000	8.012418e+000
2.494761016135364e-007	2.966637e-002	8.242540e+000	8.328451e+000
2.512189587563937e-007	2.942809e-002	8.153411e+000	8.604421e+000
2.529618158992509e-007	2.918462e-002	8.062267e+000	8.840327e+000
2.547046730421082e-007	2.893594e-002	7.969108e+000	9.036171e+000
2.564475301849655e-007	2.868206e-002	7.873933e+000	9.191952e+000
2.581903873278228e-007	2.842299e-002	7.776742e+000	9.307670e+000
2.613618158992516e-007	2.793638e-002	7.594642e+000	9.472959e+000
2.645332444706804e-007	2.743214e-002	7.406690e+000	9.612512e+000
2.677046730421092e-007	2.691026e-002	7.212886e+000	9.726328e+000
2.708761016135380e-007	2.637075e-002	7.013231e+000	9.814407e+000
2.740475301849668e-007	2.581360e-002	6.807724e+000	9.876750e+000
2.772189587563956e-007	2.523882e-002	6.596365e+000	9.913356e+000
2.803903873278244e-007	2.464640e-002	6.379154e+000	9.924225e+000
2.828618158992532e-007	2.417342e-002	6.206336e+000	9.939272e+000
2.853332444706820e-007	2.369145e-002	6.030638e+000	9.952246e+000
2.878046730421107e-007	2.320050e-002	5.852061e+000	9.963147e+000
2.902761016135394e-007	2.270057e-002	5.670605e+000	9.971975e+000
2.927475301849682e-007	2.219166e-002	5.486270e+000	9.978729e+000
2.952189587563970e-007	2.167377e-002	5.299055e+000	9.983411e+000
2.976903873278257e-007	2.114690e-002	5.108961e+000	9.986019e+000
2.977903873278257e-007	2.112544e-002	5.101224e+000	9.986153e+000
3.042046730421119e-007	1.970823e-002	4.591978e+000	9.990724e+000
3.106189587563981e-007	1.825650e-002	4.071758e+000	9.994392e+000
3.170332444706843e-007	1.677022e-002	3.540565e+000	9.997157e+000
3.234475301849705e-007	1.524941e-002	2.998398e+000	9.999018e+000
3.298618158992568e-007	1.369407e-002	2.445258e+000	9.999977e+000
3.362761016135429e-007	1.210419e-002	1.881145e+000	1.000003e+001
3.426903873278291e-007	1.047977e-002	1.306058e+000	9.999186e+000
3.472412523182452e-007	9.328653e-003	8.985412e-001	9.979507e+000
3.481462565979744e-007	9.097488e-003	8.172833e-001	9.130176e+000
3.490512608777036e-007	8.864511e-003	7.359842e-001	8.340945e+000
3.499562651574328e-007	8.629725e-003	6.546440e-001	7.611814e+000
3.508612694371620e-007	8.393127e-003	5.732626e-001	6.942784e+000
3.517662737168912e-007	8.154719e-003	4.918401e-001	6.333854e+000
3.526712779966203e-007	7.914500e-003	4.103764e-001	5.785025e+000
3.535762822763495e-007	7.672471e-003	3.288715e-001	5.296297e+000
3.544905679906353e-007	7.426805e-003	2.465081e-001	4.841218e+000
3.554048537049211e-007	7.180221e-003	1.641419e-001	4.418607e+000
3.563191394192069e-007	6.932719e-003	8.177294e-002	4.028464e+000
3.572334251334926e-007	6.684299e-003	-5.988138e-004	3.670788e+000
3.581477108477784e-007	6.434961e-003	-8.297334e-002	3.345579e+000
3.590619965620642e-007	6.184705e-003	-1.653507e-001	3.052837e+000
3.599762822763500e-007	5.933530e-003	-2.477307e-001	2.792563e+000
3.608905679906358e-007	5.681839e-003	-3.300939e-001	2.552615e+000
3.618048537049216e-007	5.429782e-003	-4.124203e-001	2.329786e+000
3.627191394192074e-007	5.177359e-003	-4.947101e-001	2.124076e+000
3.636334251334931e-007	4.924570e-003	-5.769632e-001	1.935485e+000
3.645477108477789e-007	4.671416e-003	-6.591796e-001	1.764014e+000
3.654619965620647e-007	4.417896e-003	-7.413594e-001	1.609661e+000
3.663762822763505e-007	4.164010e-003	-8.235025e-001	1.472427e+000
3.672905679906363e-007	3.910000e-003	-9.055893e-001	1.345910e+000
3.682048537049221e-007	3.655973e-003	-9.876000e-001	1.228420e+000
3.691191394192078e-007	3.401929e-003	-1.069535e+000	1.119956e+000
3.700334251334936e-007	3.147869e-003	-1.151394e+000	1.020518e+000
3.709477108477794e-007	2.893793e-003	-1.233176e+000	9.301064e-001
3.718619965620652e-007	2.639700e-003	-1.314883e+000	8.487211e-001
3.727762822763510e-007	2.385590e-003	-1.396514e+000	7.763622e-001
3.736905679906367e-007	2.131620e-003	-1.478049e+000	7.096541e-001
3.746048537049225e-007	1.877875e-003	-1.559469e+000	6.477053e-001
3.755191394192083e-007	1.624356e-003	-1.640774e+000	5.905158e-001
3.764334251334941e-007	1.371061e-003	-1.721964e+000	5.380855e-001
3.773477108477799e-007	1.117991e-003	-1.803039e+000	4.904145e-001
3.782619965620656e-007	8.651459e-004	-1.883999e+000	4.475027e-001
3.791762822763514e-007	6.125260e-004	-1.964844e+000	4.093502e-001
3.800887822763515e-007	3.607358e-004	-2.045396e+000	3.742298e-001
3.810012822763516e-007	1.093523e-004	-2.125796e+000	3.416141e-001
3.819137822763516e-007	-1.416244e-004	-2.206042e+000	3.115032e-001
3.828262822763517e-007	-3.921943e-004	-2.286135e+000	2.838970e-001
3.837387822763518e-007	-6.423574e-004	-2.366076e+000	2.587956e-001
3.846512822763518e-007	-8.921138e-004	-2.445863e+000	2.361990e-001
3.855637822763519e-007	-1.141463e-003	-2.525498e+000	2.161071e-001
3.864780679906377e-007	-1.390805e-003	-2.605115e+000	1.975383e-001
3.873923537049235e-007	-1.639586e-003	-2.684540e+000	1.802943e-001
3.883066394192093e-007	-1.887805e-003	-2.763774e+000	1.643751e-001
3.892209251334950e-007	-2.135464e-003	-2.842816e+000	1.497807e-001
3.901352108477808e-007	-2.382561e-003	-2.921666e+000	1.365111e-001
3.910494965620666e-007	-2.629097e-003	-3.000324e+000	1.245662e-001
3.919637822763524e-007	-2.875072e-003	-3.078790e+000	1.139462e-001
3.925637822763524e-007	-3.036131e-003	-3.130164e+000	1.073614e-001
3.931637822763525e-007	-3.196901e-003	-3.181442e+000	1.011105e-001
