time	V(faa_in)	V(output)
0.000000000000000e+000	1.097053e-015	1.474701e-004
9.999999960041972e-012	7.848064e-006	1.474701e-004
1.999999992008394e-011	2.092423e-005	1.474701e-004
3.999999984016789e-011	6.901253e-005	1.474701e-004
7.999999968033578e-011	2.569018e-004	1.474701e-004
1.599999993606716e-010	1.006141e-003	1.474701e-004
3.199999987213431e-010	3.984521e-003	1.474701e-004
6.399999974426862e-010	1.442765e-002	1.474701e-004
1.000000000000000e-009	3.074807e-002	1.474701e-004
1.252000001790120e-009	4.593273e-002	1.474701e-004
1.540000003835971e-009	6.292844e-002	1.474701e-004
2.116000007927673e-009	9.580433e-002	1.474701e-004
3.268000016111078e-009	1.573769e-001	1.474701e-004
5.572000032477887e-009	2.657938e-001	1.474701e-004
1.018000006521150e-008	4.362024e-001	1.474701e-004
1.939600013067874e-008	6.560236e-001	1.474701e-004
3.782800026161321e-008	8.613301e-001	1.474701e-004
7.469200052348216e-008	9.811830e-001	1.474701e-004
1.179113969136816e-007	9.998578e-001	1.474701e-004
1.276220308256064e-007	9.993967e-001	1.474701e-004
1.488640425079420e-007	9.998707e-001	1.474701e-004
1.512917009859232e-007	9.998867e-001	1.474701e-004
1.561470179418856e-007	9.999117e-001	1.474701e-004
1.658576518538104e-007	9.999434e-001	1.474701e-004
1.852789196776601e-007	9.999720e-001	1.474701e-004
2.241214553253594e-007	9.999872e-001	1.474701e-004
3.018065266207580e-007	9.999902e-001	1.474701e-004
4.571766692115552e-007	9.999900e-001	1.474701e-004
7.679169543931497e-007	9.999900e-001	1.474701e-004
1.389397524756339e-006	9.999900e-001	1.474701e-004
2.389397524756339e-006	9.999900e-001	1.474701e-004
3.389397524756339e-006	9.999900e-001	1.474703e-004
4.389397524756338e-006	9.999900e-001	1.474711e-004
5.389397524756338e-006	9.999900e-001	1.474734e-004
6.141000000000000e-006	9.999899e-001	1.474764e-004
6.143999999999999e-006	9.999899e-001	1.474764e-004
6.147999999999998e-006	9.999899e-001	1.474764e-004
6.220142857142830e-006	9.999899e-001	1.474769e-004
6.292285714285662e-006	9.999900e-001	1.474775e-004
6.364428571428494e-006	9.999900e-001	1.474781e-004
6.436571428571326e-006	9.999900e-001	1.474787e-004
6.508714285714158e-006	9.999900e-001	1.474793e-004
6.580857142856990e-006	9.999900e-001	1.474800e-004
6.652999999999822e-006	9.999900e-001	1.474807e-004
6.658999999999820e-006	9.999900e-001	1.474808e-004
6.727857142856988e-006	9.999900e-001	1.474815e-004
6.796714285714157e-006	9.999900e-001	1.474823e-004
6.865571428571326e-006	9.999900e-001	1.474832e-004
6.934428571428494e-006	9.999900e-001	1.474841e-004
7.003285714285663e-006	9.999900e-001	1.474851e-004
7.072142857142831e-006	9.999900e-001	1.474861e-004
7.141000000000000e-006	9.999900e-001	1.474872e-004
7.141825000000000e-006	9.999900e-001	1.474872e-004
7.141899999999999e-006	9.999900e-001	1.474872e-004
7.142000000000000e-006	9.999900e-001	1.474872e-004
7.142001250000001e-006	9.999900e-001	1.474872e-004
7.142002187500000e-006	9.999900e-001	1.474872e-004
7.142024866071429e-006	9.999900e-001	1.474872e-004
7.142047544642857e-006	9.999900e-001	1.474872e-004
7.142070223214287e-006	9.999900e-001	1.474872e-004
7.142092901785715e-006	9.999900e-001	1.474872e-004
7.142115580357144e-006	9.999900e-001	1.474872e-004
7.142138258928572e-006	9.999900e-001	1.474872e-004
7.142160937500001e-006	9.999900e-001	1.474872e-004
7.284852232142858e-006	9.999900e-001	1.474896e-004
7.427543526785716e-006	9.999900e-001	1.474924e-004
7.570234821428572e-006	9.999900e-001	1.474956e-004
7.712926116071430e-006	9.999900e-001	1.474992e-004
7.855617410714287e-006	9.999900e-001	1.475032e-004
7.998308705357144e-006	9.999900e-001	1.475077e-004
8.141000000000001e-006	9.999900e-001	1.475125e-004
8.141999999999999e-006	9.999900e-001	1.475126e-004
8.266977142856887e-006	9.999900e-001	1.475174e-004
8.391954285713776e-006	9.999900e-001	1.475227e-004
8.516931428570663e-006	9.999900e-001	1.475286e-004
8.641908571427550e-006	9.999900e-001	1.475351e-004
8.766885714284439e-006	9.999900e-001	1.475421e-004
8.891862857141326e-006	9.999900e-001	1.475496e-004
9.016839999998214e-006	9.999900e-001	1.475577e-004
9.018119999998212e-006	9.999900e-001	1.475578e-004
9.018439999998210e-006	9.999900e-001	1.475578e-004
9.019079999998209e-006	9.999900e-001	1.475579e-004
9.020359999998208e-006	9.999900e-001	1.475580e-004
9.022919999998202e-006	9.999900e-001	1.475582e-004
9.028039999998191e-006	9.999900e-001	1.475585e-004
9.038279999998170e-006	9.999900e-001	1.475592e-004
9.058759999998129e-006	9.999900e-001	1.475607e-004
9.099719999998045e-006	9.999900e-001	1.475637e-004
9.181639999997877e-006	9.999900e-001	1.475700e-004
9.345479999997543e-006	9.999900e-001	1.475840e-004
9.673159999996874e-006	9.999900e-001	1.476189e-004
1.032851999999554e-005	9.999900e-001	1.477027e-004
1.032951999999554e-005	9.999900e-001	1.477029e-004
1.033151999999554e-005	9.999900e-001	1.477032e-004
1.033551999999554e-005	9.999900e-001	1.477038e-004
1.034351999999554e-005	9.999900e-001	1.477051e-004
1.035951999999555e-005	9.999900e-001	1.477078e-004
1.039151999999557e-005	9.999900e-001	1.477131e-004
1.045551999999560e-005	9.999900e-001	1.477242e-004
1.058351999999566e-005	9.999900e-001	1.477480e-004
1.083951999999579e-005	9.999900e-001	1.477988e-004
1.084051999999579e-005	9.999900e-001	1.477990e-004
1.084251999999579e-005	9.999900e-001	1.477994e-004
1.084651999999579e-005	9.999900e-001	1.478003e-004
1.085451999999580e-005	9.999900e-001	1.478020e-004
1.087051999999581e-005	9.999900e-001	1.478056e-004
1.090251999999582e-005	9.999900e-001	1.478127e-004
1.096651999999585e-005	9.999900e-001	1.478273e-004
1.098399999999994e-005	9.999900e-001	1.478314e-004
1.101896000000810e-005	9.999900e-001	1.478397e-004
1.104207999998367e-005	9.999900e-001	1.478453e-004
1.106576000004886e-005	9.999900e-001	1.478511e-004
1.106676000004886e-005	9.999900e-001	1.478513e-004
1.106876000004886e-005	9.999900e-001	1.478518e-004
1.107276000004886e-005	9.999900e-001	1.478528e-004
1.108076000004887e-005	9.999900e-001	1.478548e-004
1.109676000004888e-005	9.999900e-001	1.478588e-004
1.109776000004888e-005	9.999900e-001	1.478590e-004
1.109976000004888e-005	9.999900e-001	1.478595e-004
1.110376000004888e-005	9.999900e-001	1.478605e-004
1.110400000000000e-005	9.999900e-001	1.478606e-004
1.110447999990223e-005	9.999900e-001	1.478607e-004
1.110543999970669e-005	9.999900e-001	1.478609e-004
1.110735999931562e-005	9.999900e-001	1.478614e-004
1.110816000078215e-005	9.999900e-001	1.478616e-004
1.110976000371520e-005	9.999900e-001	1.478620e-004
1.111076000371520e-005	9.999900e-001	1.478623e-004
1.111100000000000e-005	9.999900e-001	1.478624e-004
1.111147999256960e-005	9.999900e-001	1.478625e-004
1.111200000000000e-005	9.999900e-001	1.478626e-004
1.111205200074304e-005	9.997644e-001	1.478626e-004
1.111215600222912e-005	9.988090e-001	1.478627e-004
1.111236400520128e-005	9.950771e-001	1.478627e-004
1.111258399405568e-005	9.879529e-001	1.478628e-004
1.111300000000000e-005	9.691709e-001	1.478629e-004
1.111375475364184e-005	9.248212e-001	1.478630e-004
1.111450950728368e-005	8.826360e-001	1.478632e-004
1.111526426092553e-005	8.426154e-001	1.478634e-004
1.111601901456737e-005	8.047594e-001	1.478636e-004
1.111677376820921e-005	7.690679e-001	1.478638e-004
1.111752852185105e-005	7.355410e-001	1.478640e-004
1.111828327549290e-005	7.041787e-001	1.478642e-004
1.112360815158023e-005	5.208294e-001	1.478655e-004
1.113425790375489e-005	2.970710e-001	1.478683e-004
1.115555740810421e-005	1.033660e-001	1.478738e-004
1.119421968588175e-005	1.132063e-002	1.478839e-004
1.124154878725819e-005	-1.145279e-003	1.478967e-004
1.132795702790605e-005	1.446263e-004	1.479211e-004
1.150077350920178e-005	-3.619359e-005	1.479745e-004
1.184640647179323e-005	1.301608e-005	1.481025e-004
1.253767239697614e-005	-1.232944e-006	1.484337e-004
1.328700000000000e-005	-1.937111e-004	1.488753e-004
1.329300000000000e-005	-1.362395e-004	1.488798e-004
1.330100000000001e-005	-8.812171e-005	1.488857e-004
1.331700000000002e-005	-3.950742e-005	1.488978e-004
1.334900000000003e-005	-8.709562e-006	1.489221e-004
1.354100000000013e-005	-2.582374e-009	1.490776e-004
1.364742857142868e-005	-3.074166e-009	1.491664e-004
1.375385714285723e-005	-3.279061e-009	1.492600e-004
1.386028571428579e-005	-3.197059e-009	1.493584e-004
1.396671428571434e-005	-2.828161e-009	1.494617e-004
1.407314285714289e-005	-2.172365e-009	1.495697e-004
1.417957142857145e-005	-1.229673e-009	1.496826e-004
1.428600000000000e-005	-8.337196e-014	1.498003e-004
1.428610000000000e-005	-8.337173e-014	1.498004e-004
1.428630000000000e-005	-8.337128e-014	1.498006e-004
1.428660000000000e-005	-8.337059e-014	1.498010e-004
1.428700000000000e-005	-8.336969e-014	1.498014e-004
1.428772571428572e-005	-8.336804e-014	1.498022e-004
1.428845142857143e-005	-8.336639e-014	1.498030e-004
1.428917714285715e-005	-8.336473e-014	1.498039e-004
1.428990285714286e-005	-8.336308e-014	1.498047e-004
1.429062857142858e-005	-8.336142e-014	1.498055e-004
1.429135428571430e-005	-8.335976e-014	1.498063e-004
1.429208000000001e-005	-8.335810e-014	1.498072e-004
1.429720000000002e-005	-8.334632e-014	1.498130e-004
1.430744000000005e-005	-8.332245e-014	1.498246e-004
1.432792000000009e-005	-8.327350e-014	1.498482e-004
1.436888000000018e-005	-8.317291e-014	1.498956e-004
1.437912000000020e-005	-8.314700e-014	1.499076e-004
1.440472000000026e-005	-8.308051e-014	1.499378e-004
1.441496000000028e-005	-8.305318e-014	1.499499e-004
1.443544000000033e-005	-8.299732e-014	1.499745e-004
1.447640000000042e-005	-8.288068e-014	1.500244e-004
1.455832000000060e-005	-8.262779e-014	1.501271e-004
1.472216000000095e-005	-8.204452e-014	1.503457e-004
1.504984000000167e-005	-8.057559e-014	1.508395e-004
1.570520000000311e-005	-7.663148e-014	1.520537e-004
1.670520000000311e-005	-6.863091e-014	1.544656e-004
1.770520000000311e-005	-5.847204e-014	1.576927e-004
1.870520000000311e-005	-4.634510e-014	1.619881e-004
1.970520000000311e-005	-3.280141e-014	1.674523e-004
2.042700000000000e-005	-2.244551e-014	1.720816e-004
2.042999999999999e-005	-2.240105e-014	1.721033e-004
2.050271428571406e-005	-2.131762e-014	1.726468e-004
2.057542857142814e-005	-2.023253e-014	1.731977e-004
2.064814285714222e-005	-1.914579e-014	1.737561e-004
2.072085714285629e-005	-1.805740e-014	1.743219e-004
2.079357142857037e-005	-1.696735e-014	1.748951e-004
2.086628571428445e-005	-1.587566e-014	1.754758e-004
2.093899999999852e-005	-1.478231e-014	1.760639e-004
2.100871428571302e-005	-1.373189e-014	1.766411e-004
2.107842857142751e-005	-1.268112e-014	1.772271e-004
2.114814285714201e-005	-1.162999e-014	1.778218e-004
2.121785714285651e-005	-1.057851e-014	1.784253e-004
2.128757142857101e-005	-9.526682e-015	1.790374e-004
2.135728571428550e-005	-8.474497e-015	1.796584e-004
2.142700000000000e-005	-7.421958e-015	1.802880e-004
2.142782500000000e-005	-7.409508e-015	1.802955e-004
2.142790000000000e-005	-7.408376e-015	1.802962e-004
2.142800000000000e-005	-7.406867e-015	1.802971e-004
2.154142857142857e-005	-5.692996e-015	1.813423e-004
2.165485714285714e-005	-3.982991e-015	1.824119e-004
2.176828571428571e-005	-2.276852e-015	1.835061e-004
2.188171428571429e-005	-5.745794e-016	1.846247e-004
2.199514285714286e-005	1.123827e-015	1.857679e-004
2.210857142857143e-005	2.818368e-015	1.869355e-004
2.222200000000000e-005	4.509042e-015	1.881276e-004
2.222210000000000e-005	8.312275e-004	1.881287e-004
2.222230000000000e-005	4.036234e-003	1.881308e-004
2.222260000000000e-005	1.326891e-002	1.881340e-004
2.222300000000000e-005	3.103136e-002	1.881383e-004
2.222328000000000e-005	4.787848e-002	1.881413e-004
2.222360000000000e-005	6.669162e-002	1.881447e-004
2.222424000000000e-005	1.029508e-001	1.881515e-004
2.222552000000000e-005	1.703834e-001	1.881651e-004
2.222808000000001e-005	2.875582e-001	1.881924e-004
2.223320000000002e-005	4.674182e-001	1.882470e-004
2.224344000000004e-005	6.903694e-001	1.883564e-004
2.226392000000009e-005	8.873088e-001	1.885759e-004
2.230250244097211e-005	9.870803e-001	1.889917e-004
2.235145870370677e-005	9.991669e-001	1.895222e-004
2.237945870370669e-005	9.998227e-001	1.898284e-004
2.238625031746287e-005	9.998761e-001	1.899029e-004
2.239304193121906e-005	9.999195e-001	1.899774e-004
2.239983354497525e-005	9.999527e-001	1.900521e-004
2.240662515873144e-005	9.999758e-001	1.901268e-004
2.241341677248763e-005	9.999887e-001	1.902017e-004
2.242020838624381e-005	9.999916e-001	1.902766e-004
2.242700000000000e-005	9.999843e-001	1.903517e-004
2.242774330995179e-005	9.999846e-001	1.903599e-004
2.242783100307962e-005	9.999846e-001	1.903609e-004
2.242785017108545e-005	9.999846e-001	1.903611e-004
2.242800000000000e-005	9.999847e-001	1.903628e-004
2.250505197310856e-005	9.999879e-001	1.912259e-004
2.258210394621711e-005	9.999903e-001	1.921002e-004
2.265915591932567e-005	9.999918e-001	1.929856e-004
2.273620789243422e-005	9.999926e-001	1.938821e-004
2.281325986554278e-005	9.999925e-001	1.947897e-004
2.289031183865133e-005	9.999917e-001	1.957084e-004
2.296736381175989e-005	9.999900e-001	1.966382e-004
2.317711925021228e-005	9.999900e-001	1.992458e-004
2.330353435820814e-005	9.999900e-001	2.008583e-004
2.330400256231183e-005	9.999900e-001	2.008644e-004
2.330493897051921e-005	9.999900e-001	2.008765e-004
2.330681178693396e-005	9.999900e-001	2.009007e-004
2.331055741976347e-005	9.999900e-001	2.009492e-004
2.331804868542248e-005	9.999900e-001	2.010462e-004
2.333303121674051e-005	9.999900e-001	2.012408e-004
2.336299627937656e-005	9.999900e-001	2.016318e-004
2.342292640464868e-005	9.999900e-001	2.024213e-004
2.354278665519290e-005	9.999900e-001	2.040305e-004
2.378250715628135e-005	9.999900e-001	2.073716e-004
2.426194815845824e-005	9.999900e-001	2.145578e-004
2.522083016281203e-005	9.999900e-001	2.304754e-004
2.622083016281203e-005	9.999900e-001	2.492136e-004
2.722083016281203e-005	9.999900e-001	2.700601e-004
2.757200000000000e-005	9.999900e-001	2.779881e-004
2.786966032562407e-005	9.999900e-001	2.850542e-004
2.797667934875187e-005	9.999900e-001	2.876644e-004
2.819071739500748e-005	9.999900e-001	2.929740e-004
2.819171739500748e-005	9.999900e-001	2.929990e-004
2.819371739500747e-005	9.999900e-001	2.930494e-004
2.819771739500747e-005	9.999900e-001	2.931501e-004
2.820571739500746e-005	9.999900e-001	2.933518e-004
2.822171739500744e-005	9.999900e-001	2.937557e-004
2.825371739500740e-005	9.999900e-001	2.945662e-004
2.831771739500733e-005	9.999900e-001	2.961976e-004
2.844571739500717e-005	9.999900e-001	2.994799e-004
2.844671739500717e-005	9.999900e-001	2.995057e-004
2.844871739500717e-005	9.999900e-001	2.995574e-004
2.845271739500716e-005	9.999900e-001	2.996609e-004
2.846071739500715e-005	9.999900e-001	2.998681e-004
2.847671739500714e-005	9.999900e-001	3.002831e-004
2.850871739500710e-005	9.999900e-001	3.011144e-004
2.850971739500710e-005	9.999900e-001	3.011404e-004
2.851171739500709e-005	9.999900e-001	3.011924e-004
2.851571739500709e-005	9.999900e-001	3.012966e-004
2.852371739500708e-005	9.999900e-001	3.015052e-004
2.853971739500706e-005	9.999900e-001	3.019226e-004
2.854000000000004e-005	9.999900e-001	3.019300e-004
2.854056520998600e-005	9.999900e-001	3.019447e-004
2.854169562995791e-005	9.999900e-001	3.019743e-004
2.854395646990175e-005	9.999900e-001	3.020333e-004
2.854847814978941e-005	9.999900e-001	3.021515e-004
2.855752150956474e-005	9.999900e-001	3.023880e-004
2.855852150956474e-005	9.999900e-001	3.024141e-004
2.856052150956474e-005	9.999900e-001	3.024665e-004
2.856452150956473e-005	9.999900e-001	3.025712e-004
2.856552150956473e-005	9.999900e-001	3.025974e-004
2.856752150956473e-005	9.999900e-001	3.026497e-004
2.856800000000001e-005	9.999900e-001	3.026623e-004
2.856895698087056e-005	9.999900e-001	3.026873e-004
2.857008603825890e-005	9.999900e-001	3.027169e-004
2.857108603825890e-005	9.999900e-001	3.027431e-004
2.857200000000000e-005	9.999900e-001	3.027671e-004
2.857209139617411e-005	9.999900e-001	3.027695e-004
2.857227418852233e-005	9.999900e-001	3.027742e-004
2.857263977321877e-005	9.999900e-001	3.027839e-004
2.857300000000000e-005	9.999900e-001	3.027933e-004
2.857562965550297e-005	9.999900e-001	3.028622e-004
2.857825931100593e-005	9.999900e-001	3.029312e-004
2.858088896650890e-005	9.999900e-001	3.030001e-004
2.858351862201186e-005	9.999900e-001	3.030691e-004
2.858614827751483e-005	9.999900e-001	3.031381e-004
2.858877793301779e-005	9.999900e-001	3.032072e-004
2.859140758852076e-005	9.999900e-001	3.032762e-004
2.860985119971964e-005	9.999900e-001	3.037613e-004
2.865596022771685e-005	9.999900e-001	3.049769e-004
2.867440383891574e-005	9.999900e-001	3.054652e-004
2.871129106131350e-005	9.999900e-001	3.064437e-004
2.872051286691294e-005	9.999900e-001	3.066889e-004
2.873895647811183e-005	9.999900e-001	3.071805e-004
2.877584370050959e-005	9.999900e-001	3.081671e-004
2.884961814530513e-005	9.999900e-001	3.101542e-004
2.899716703489619e-005	9.999900e-001	3.141843e-004
2.929226481407832e-005	9.999900e-001	3.224686e-004
2.988246037244258e-005	9.999900e-001	3.398639e-004
3.088246037244258e-005	9.999900e-001	3.713377e-004
3.188246037244258e-005	9.999900e-001	4.049336e-004
3.233400000000001e-005	9.999900e-001	4.209125e-004
3.243092074488515e-005	9.999900e-001	4.244622e-004
3.262476223465544e-005	9.999900e-001	4.317104e-004
3.294631702045942e-005	9.999900e-001	4.438777e-004
3.294731702045943e-005	9.999900e-001	4.439160e-004
3.294931702045944e-005	9.999900e-001	4.439929e-004
3.295331702045946e-005	9.999900e-001	4.441468e-004
3.296131702045950e-005	9.999900e-001	4.444547e-004
3.297731702045959e-005	9.999900e-001	4.450713e-004
3.300931702045977e-005	9.999900e-001	4.463073e-004
3.307331702046013e-005	9.999900e-001	4.487909e-004
3.320131702046084e-005	9.999900e-001	4.537795e-004
3.320231702046085e-005	9.999900e-001	4.538186e-004
3.320431702046086e-005	9.999900e-001	4.538971e-004
3.320831702046089e-005	9.999900e-001	4.540540e-004
3.321631702046093e-005	9.999900e-001	4.543680e-004
3.326431702046120e-005	9.999900e-001	4.562559e-004
3.328136595907654e-005	9.999900e-001	4.569282e-004
3.330409787723031e-005	9.999900e-001	4.578257e-004
3.330709787723033e-005	9.999900e-001	4.579443e-004
3.331109787723036e-005	9.999900e-001	4.581024e-004
3.331909787723040e-005	9.999900e-001	4.584189e-004
3.332209787723042e-005	9.999900e-001	4.585376e-004
3.333400000000000e-005	9.999900e-001	4.590089e-004
3.333414285714285e-005	9.990288e-001	4.590145e-004
3.333428571428571e-005	9.969184e-001	4.590202e-004
3.333442857142857e-005	9.936589e-001	4.590259e-004
3.333457142857143e-005	9.892502e-001	4.590315e-004
3.333471428571429e-005	9.836923e-001	4.590372e-004
3.333485714285714e-005	9.769853e-001	4.590428e-004
3.333500000000000e-005	9.691291e-001	4.590485e-004
3.333613754078031e-005	9.036358e-001	4.590936e-004
3.333727508156062e-005	8.425693e-001	4.591386e-004
3.333841262234093e-005	7.859295e-001	4.591837e-004
3.333955016312124e-005	7.337164e-001	4.592288e-004
3.334068770390155e-005	6.859301e-001	4.592739e-004
3.334182524468187e-005	6.425706e-001	4.593190e-004
3.334296278546218e-005	6.036379e-001	4.593641e-004
3.335095679753401e-005	3.905556e-001	4.596811e-004
3.336694482167767e-005	1.751891e-001	4.603160e-004
3.339892086996499e-005	3.267763e-002	4.615881e-004
3.344026301654190e-005	-6.717298e-005	4.632378e-004
3.350745946579952e-005	6.350613e-006	4.659329e-004
3.363313444455443e-005	-1.383247e-006	4.710213e-004
3.388448440206425e-005	4.366186e-007	4.813896e-004
3.438718431708390e-005	1.372732e-007	5.026287e-004
3.471300000000001e-005	6.374034e-008	5.167989e-004
3.485585714285715e-005	5.206842e-007	5.231016e-004
3.499871428571429e-005	8.222782e-007	5.294972e-004
3.514157142857143e-005	9.685223e-007	5.359859e-004
3.528442857142857e-005	9.594166e-007	5.425677e-004
3.542728571428572e-005	7.949609e-007	5.492424e-004
3.557014285714286e-005	4.751554e-007	5.560103e-004
3.571300000000000e-005	-5.476242e-014	5.628711e-004
3.571382500000001e-005	-5.477222e-014	5.629110e-004
3.571390000000000e-005	-5.477311e-014	5.629146e-004
3.571400000000000e-005	-5.477429e-014	5.629194e-004
3.572570299107146e-005	-5.491300e-014	5.634856e-004
3.573740598214291e-005	-5.505126e-014	5.640525e-004
3.574910897321436e-005	-5.518908e-014	5.646203e-004
