time	V(faa_in)	V(output)
0.000000000000000e+000	1.097053e-015	1.474701e-004
9.999999960041972e-012	7.848064e-006	1.474701e-004
1.999999992008394e-011	2.092423e-005	1.474701e-004
3.999999984016789e-011	6.901253e-005	1.474701e-004
7.999999968033578e-011	2.569018e-004	1.474701e-004
1.599999993606716e-010	1.006141e-003	1.474701e-004
3.199999987213431e-010	3.984521e-003	1.474701e-004
6.399999974426862e-010	1.442765e-002	1.474701e-004
1.000000000000000e-009	3.074807e-002	1.474701e-004
1.252000001790120e-009	4.593273e-002	1.474701e-004
1.540000003835971e-009	6.292844e-002	1.474701e-004
2.116000007927673e-009	9.580433e-002	1.474701e-004
3.268000016111078e-009	1.573769e-001	1.474701e-004
5.572000032477887e-009	2.657938e-001	1.474701e-004
1.018000006521150e-008	4.362024e-001	1.474701e-004
1.939600013067874e-008	6.560236e-001	1.474701e-004
3.782800026161321e-008	8.613301e-001	1.474701e-004
7.469200052348216e-008	9.811830e-001	1.474701e-004
1.179113969136816e-007	9.998578e-001	1.474701e-004
1.276220308256064e-007	9.993967e-001	1.474701e-004
1.488640425079420e-007	9.998707e-001	1.474701e-004
1.512917009859232e-007	9.998867e-001	1.474701e-004
1.561470179418856e-007	9.999117e-001	1.474701e-004
1.658576518538104e-007	9.999434e-001	1.474701e-004
1.852789196776601e-007	9.999720e-001	1.474701e-004
2.241214553253594e-007	9.999872e-001	1.474701e-004
3.018065266207580e-007	9.999902e-001	1.474701e-004
4.571766692115552e-007	9.999900e-001	1.474701e-004
7.679169543931497e-007	9.999900e-001	1.474701e-004
1.389397524756339e-006	9.999900e-001	1.474701e-004
2.389397524756339e-006	9.999900e-001	1.474701e-004
3.389397524756339e-006	9.999900e-001	1.474703e-004
4.389397524756338e-006	9.999900e-001	1.474711e-004
5.389397524756338e-006	9.999900e-001	1.474737e-004
6.389397524756338e-006	9.999900e-001	1.474808e-004
7.389397524756338e-006	9.999900e-001	1.474980e-004
8.389397524756338e-006	9.999900e-001	1.475359e-004
9.389397524756339e-006	9.999900e-001	1.476123e-004
1.038939752475634e-005	9.999900e-001	1.477557e-004
1.138939752475634e-005	9.999900e-001	1.480086e-004
1.238939752475634e-005	9.999900e-001	1.484316e-004
1.338939752475634e-005	9.999900e-001	1.491068e-004
1.438939752475634e-005	9.999900e-001	1.500374e-004
1.455600000000000e-005	9.999900e-001	1.502349e-004
1.488920495048731e-005	9.999899e-001	1.506867e-004
1.489036039610151e-005	9.999899e-001	1.506884e-004
1.498545176808701e-005	9.999899e-001	1.508301e-004
1.508054314007250e-005	9.999900e-001	1.509774e-004
1.517563451205800e-005	9.999900e-001	1.511302e-004
1.527072588404350e-005	9.999900e-001	1.512886e-004
1.536581725602900e-005	9.999900e-001	1.514524e-004
1.546090862801450e-005	9.999900e-001	1.516218e-004
1.555600000000000e-005	9.999900e-001	1.517967e-004
1.555682500000000e-005	9.999900e-001	1.517982e-004
1.555690000000000e-005	9.999900e-001	1.517983e-004
1.555700000000000e-005	9.999900e-001	1.517985e-004
1.555700084821428e-005	9.999900e-001	1.517985e-004
1.555700169642857e-005	9.999900e-001	1.517985e-004
1.555700254464286e-005	9.999900e-001	1.517985e-004
1.555700339285714e-005	9.999900e-001	1.517985e-004
1.555700424107143e-005	9.999900e-001	1.517985e-004
1.555700508928571e-005	9.999900e-001	1.517985e-004
1.555700593750000e-005	9.999900e-001	1.517985e-004
1.555702093750000e-005	9.999900e-001	1.517986e-004
1.555720093750000e-005	9.999900e-001	1.517989e-004
1.555738093750000e-005	9.999900e-001	1.517992e-004
1.555756093750000e-005	9.999900e-001	1.517996e-004
1.555774093750000e-005	9.999900e-001	1.517999e-004
1.555792093750000e-005	9.999900e-001	1.518003e-004
1.555810093750000e-005	9.999900e-001	1.518006e-004
1.555828093750000e-005	9.999900e-001	1.518009e-004
1.570081223214286e-005	9.999900e-001	1.520742e-004
1.584334352678572e-005	9.999900e-001	1.523631e-004
1.598587482142857e-005	9.999900e-001	1.526677e-004
1.612840611607143e-005	9.999900e-001	1.529878e-004
1.627093741071428e-005	9.999900e-001	1.533235e-004
1.641346870535714e-005	9.999900e-001	1.536749e-004
1.655600000000000e-005	9.999900e-001	1.540418e-004
1.655700000000000e-005	9.999900e-001	1.540445e-004
1.666232000000023e-005	9.999900e-001	1.543320e-004
1.676764000000046e-005	9.999900e-001	1.546289e-004
1.687296000000069e-005	9.999900e-001	1.549353e-004
1.697828000000092e-005	9.999900e-001	1.552510e-004
1.708360000000116e-005	9.999900e-001	1.555763e-004
1.718892000000138e-005	9.999900e-001	1.559109e-004
1.729424000000162e-005	9.999900e-001	1.562550e-004
1.733181714285884e-005	9.999900e-001	1.563815e-004
1.736939428571607e-005	9.999900e-001	1.565095e-004
1.740697142857329e-005	9.999900e-001	1.566390e-004
1.744454857143052e-005	9.999900e-001	1.567701e-004
1.748212571428774e-005	9.999900e-001	1.569026e-004
1.751970285714497e-005	9.999900e-001	1.570366e-004
1.755728000000219e-005	9.999900e-001	1.571722e-004
1.755856000000219e-005	9.999900e-001	1.571768e-004
1.756112000000220e-005	9.999900e-001	1.571861e-004
1.756624000000221e-005	9.999900e-001	1.572048e-004
1.757648000000224e-005	9.999900e-001	1.572422e-004
1.759696000000228e-005	9.999900e-001	1.573175e-004
1.763792000000237e-005	9.999900e-001	1.574698e-004
1.771984000000255e-005	9.999900e-001	1.577815e-004
1.788368000000291e-005	9.999900e-001	1.584347e-004
1.821136000000363e-005	9.999900e-001	1.598675e-004
1.886672000000506e-005	9.999900e-001	1.632200e-004
1.986672000000506e-005	9.999900e-001	1.694885e-004
2.086672000000507e-005	9.999900e-001	1.770298e-004
2.122200000000000e-005	9.999900e-001	1.801457e-004
2.151144000001013e-005	9.999900e-001	1.829408e-004
2.164311999997973e-005	9.999900e-001	1.842865e-004
2.190647999991893e-005	9.999900e-001	1.870777e-004
2.190747999991892e-005	9.999900e-001	1.870885e-004
2.190947999991892e-005	9.999900e-001	1.871105e-004
2.191347999991892e-005	9.999900e-001	1.871544e-004
2.192147999991891e-005	9.999900e-001	1.872424e-004
2.193747999991889e-005	9.999900e-001	1.874190e-004
2.196947999991885e-005	9.999900e-001	1.877744e-004
2.203347999991877e-005	9.999900e-001	1.884917e-004
2.209400000000015e-005	9.999900e-001	1.891757e-004
2.210095999983724e-005	9.999900e-001	1.892549e-004
2.211487999951142e-005	9.999900e-001	1.894143e-004
2.214271999885979e-005	9.999900e-001	1.897343e-004
2.216632000130327e-005	9.999900e-001	1.900066e-004
2.217479999511303e-005	9.999900e-001	1.901049e-004
2.219175998273255e-005	9.999900e-001	1.903018e-004
2.219275998273255e-005	9.999900e-001	1.903135e-004
2.219475998273254e-005	9.999900e-001	1.903368e-004
2.219875998273254e-005	9.999900e-001	1.903834e-004
2.220675998273253e-005	9.999900e-001	1.904767e-004
2.220775998273253e-005	9.999900e-001	1.904883e-004
2.220975998273253e-005	9.999900e-001	1.905117e-004
2.221375998273252e-005	9.999900e-001	1.905584e-004
2.221400000000001e-005	9.999900e-001	1.905612e-004
2.221448003453498e-005	9.999900e-001	1.905668e-004
2.221544010360494e-005	9.999900e-001	1.905781e-004
2.221736024174484e-005	9.999900e-001	1.906005e-004
2.221815972372019e-005	9.999900e-001	1.906099e-004
2.221975868767088e-005	9.999900e-001	1.906286e-004
2.222075868767088e-005	9.999900e-001	1.906403e-004
2.222100000000000e-005	9.999900e-001	1.906431e-004
2.222148262465824e-005	9.999900e-001	1.906488e-004
2.222200000000000e-005	9.999900e-001	1.906548e-004
2.222205173753417e-005	9.999900e-001	1.906554e-004
2.222215521260252e-005	9.999900e-001	1.906567e-004
2.222236216273923e-005	9.999900e-001	1.906591e-004
2.222258609972659e-005	9.999900e-001	1.906617e-004
2.222300000000000e-005	9.999900e-001	1.906666e-004
2.222450777956741e-005	9.999900e-001	1.906842e-004
2.222601555913482e-005	9.999900e-001	1.907019e-004
2.222752333870222e-005	9.999900e-001	1.907196e-004
2.222903111826963e-005	9.999900e-001	1.907372e-004
2.223053889783704e-005	9.999900e-001	1.907549e-004
2.223204667740445e-005	9.999900e-001	1.907726e-004
2.223355445697186e-005	9.999900e-001	1.907903e-004
2.224415030397105e-005	9.999900e-001	1.909149e-004
2.226534199796945e-005	9.999900e-001	1.911652e-004
2.231832123296545e-005	9.999900e-001	1.917941e-004
2.236732702533674e-005	9.999900e-001	1.923822e-004
2.237262494883634e-005	9.999900e-001	1.924462e-004
2.238322079583554e-005	9.999900e-001	1.925743e-004
2.240441248983393e-005	9.999900e-001	1.928317e-004
2.244679587783073e-005	9.999900e-001	1.933505e-004
2.253156265382432e-005	9.999900e-001	1.944049e-004
2.270109620581149e-005	9.999900e-001	1.965813e-004
2.304016330978585e-005	9.999900e-001	2.012142e-004
2.371829751773456e-005	9.999900e-001	2.114865e-004
2.471829751773456e-005	9.999900e-001	2.287841e-004
2.571829751773456e-005	9.999900e-001	2.488395e-004
2.671829751773456e-005	9.999900e-001	2.720409e-004
2.771829751773456e-005	9.999900e-001	2.985203e-004
2.871829751773457e-005	9.999900e-001	3.283835e-004
2.971829751773457e-005	9.999900e-001	3.617411e-004
3.071829751773456e-005	9.999900e-001	3.987607e-004
3.171829751773456e-005	9.999900e-001	4.397414e-004
3.271829751773456e-005	9.999900e-001	4.852118e-004
3.371829751773455e-005	9.999900e-001	5.360457e-004
3.471829751773455e-005	9.999900e-001	5.935932e-004
3.571829751773455e-005	9.999900e-001	6.598161e-004
3.671829751773455e-005	9.999900e-001	7.339350e-004
3.677800000000001e-005	9.999900e-001	7.387558e-004
3.689740496453092e-005	9.999900e-001	7.489694e-004
3.730038014187635e-005	9.999900e-001	7.847969e-004
3.744966950343280e-005	9.999900e-001	7.986704e-004
3.753892482379571e-005	9.999900e-001	8.072146e-004
3.765793191761293e-005	9.999900e-001	8.187832e-004
3.765893191761294e-005	9.999900e-001	8.188812e-004
3.766093191761295e-005	9.999900e-001	8.190785e-004
3.766493191761298e-005	9.999900e-001	8.194732e-004
3.767293191761302e-005	9.999900e-001	8.202639e-004
3.768893191761311e-005	9.999900e-001	8.218496e-004
3.772093191761329e-005	9.999900e-001	8.250299e-004
3.772393191761331e-005	9.999900e-001	8.253291e-004
3.772793191761333e-005	9.999900e-001	8.257286e-004
3.775193191761346e-005	9.999900e-001	8.281313e-004
3.775493191761348e-005	9.999900e-001	8.284324e-004
3.776693191761355e-005	9.999900e-001	8.296386e-004
3.776993191761357e-005	9.999900e-001	8.299405e-004
3.777800000000000e-005	9.999900e-001	8.307535e-004
3.777882500000000e-005	9.999900e-001	8.308367e-004
3.777890000000000e-005	9.999900e-001	8.308443e-004
3.777900000000000e-005	9.999900e-001	8.308543e-004
3.777900125000000e-005	9.999900e-001	8.308545e-004
3.777900156250000e-005	9.999900e-001	8.308545e-004
3.777900218750000e-005	9.999900e-001	8.308546e-004
3.777900343750000e-005	9.999900e-001	8.308547e-004
3.777900593750000e-005	9.999900e-001	8.308550e-004
3.779070808035756e-005	9.999900e-001	8.320369e-004
3.780241022321513e-005	9.999900e-001	8.332222e-004
3.781411236607269e-005	9.999900e-001	8.344108e-004
3.782581450893026e-005	9.999900e-001	8.356028e-004
3.783751665178782e-005	9.999900e-001	8.367982e-004
3.784921879464539e-005	9.999900e-001	8.379969e-004
3.786092093750295e-005	9.999900e-001	8.391990e-004
3.794284093750591e-005	9.999900e-001	8.477109e-004
3.810668093751182e-005	9.999900e-001	8.652605e-004
3.820258366072442e-005	9.999900e-001	8.755530e-004
3.829848638393701e-005	9.999900e-001	8.860757e-004
3.839438910714961e-005	9.999900e-001	8.968284e-004
3.849029183036221e-005	9.999900e-001	9.078112e-004
3.858619455357481e-005	9.999900e-001	9.190241e-004
3.868209727678740e-005	9.999900e-001	9.304672e-004
3.877800000000000e-005	9.999900e-001	9.421403e-004
3.877900000000000e-005	9.999900e-001	9.422631e-004
3.892052571428603e-005	9.999900e-001	9.599667e-004
3.906205142857205e-005	9.999900e-001	9.782029e-004
3.920357714285808e-005	9.999900e-001	9.969716e-004
3.934510285714410e-005	9.999900e-001	1.016273e-003
3.948662857143013e-005	9.999900e-001	1.036107e-003
3.962815428571616e-005	9.999900e-001	1.056473e-003
3.976968000000218e-005	9.999900e-001	1.077372e-003
3.977480000000219e-005	9.999900e-001	1.078144e-003
3.978504000000222e-005	9.999900e-001	1.079692e-003
3.980552000000226e-005	9.999900e-001	1.082800e-003
3.984648000000235e-005	9.999900e-001	1.089067e-003
3.992840000000253e-005	9.999900e-001	1.101804e-003
4.009224000000289e-005	9.999900e-001	1.128128e-003
4.041992000000361e-005	9.999900e-001	1.184410e-003
4.107528000000504e-005	9.999900e-001	1.311068e-003
4.207528000000504e-005	9.999900e-001	1.538007e-003
4.307528000000504e-005	9.999900e-001	1.802629e-003
4.344400000000000e-005	9.999900e-001	1.913590e-003
4.370656000001007e-005	9.999900e-001	1.999879e-003
4.391887999997985e-005	9.999900e-001	2.072915e-003
4.401936000006044e-005	9.999900e-001	2.108799e-003
4.422032000022163e-005	9.999900e-001	2.182350e-003
4.422132000022163e-005	9.999900e-001	2.182721e-003
4.422332000022163e-005	9.999900e-001	2.183471e-003
4.422732000022164e-005	9.999900e-001	2.184972e-003
4.423532000022166e-005	9.999900e-001	2.187979e-003
4.425132000022170e-005	9.999900e-001	2.194009e-003
4.428332000022177e-005	9.999900e-001	2.206138e-003
4.434732000022191e-005	9.999900e-001	2.230526e-003
4.434832000022191e-005	9.999900e-001	2.230909e-003
4.435032000022191e-005	9.999900e-001	2.231677e-003
4.435432000022192e-005	9.999900e-001	2.233215e-003
4.436232000022194e-005	9.999900e-001	2.236294e-003
4.437832000022197e-005	9.999900e-001	2.242471e-003
4.441032000022204e-005	9.999900e-001	2.254858e-003
4.441132000022205e-005	9.999900e-001	2.255246e-003
4.441332000022205e-005	9.999900e-001	2.256023e-003
4.441732000022206e-005	9.999900e-001	2.257579e-003
4.442532000022208e-005	9.999900e-001	2.260694e-003
4.442799999999996e-005	9.999900e-001	2.261738e-003
4.443335999955573e-005	9.999900e-001	2.263828e-003
4.443435999955574e-005	9.999900e-001	2.264219e-003
4.443635999955574e-005	9.999900e-001	2.265000e-003
4.444035999955575e-005	9.999900e-001	2.266562e-003
4.444135999955575e-005	9.999900e-001	2.266953e-003
4.444199999999999e-005	9.999900e-001	2.267203e-003
4.444271999911151e-005	9.999900e-001	2.267484e-003
4.444299999999999e-005	9.999900e-001	2.267594e-003
4.444343999822303e-005	9.999900e-001	2.267766e-003
4.444400000000000e-005	9.999900e-001	2.267984e-003
4.444405600017769e-005	9.999900e-001	2.268007e-003
4.444416800053309e-005	9.999900e-001	2.268050e-003
4.444439200124387e-005	9.999900e-001	2.268138e-003
4.444474398649508e-005	9.999900e-001	2.268275e-003
4.444487194882344e-005	9.999900e-001	2.268326e-003
4.444500000000000e-005	9.999900e-001	2.268376e-003
4.444503841535297e-005	9.999900e-001	2.268390e-003
4.444690430392563e-005	9.999900e-001	2.269120e-003
4.444877019249829e-005	9.999900e-001	2.269851e-003
4.445063608107095e-005	9.999900e-001	2.270581e-003
4.445250196964361e-005	9.999900e-001	2.271312e-003
4.445436785821627e-005	9.999900e-001	2.272043e-003
4.445623374678894e-005	9.999900e-001	2.272775e-003
4.445809963536159e-005	9.999900e-001	2.273506e-003
4.447121207584084e-005	9.999900e-001	2.278658e-003
4.449743695679933e-005	9.999900e-001	2.289009e-003
4.454988671871631e-005	9.999900e-001	2.309816e-003
4.456299915919556e-005	9.999900e-001	2.315048e-003
4.459004356768400e-005	9.999900e-001	2.325884e-003
4.459168262274390e-005	9.999900e-001	2.326543e-003
4.459496073286371e-005	9.999900e-001	2.327861e-003
4.460151695310334e-005	9.999900e-001	2.330501e-003
4.461462939358258e-005	9.999900e-001	2.335793e-003
4.464085427454107e-005	9.999900e-001	2.346425e-003
4.469330403645806e-005	9.999900e-001	2.367886e-003
4.479820356029203e-005	9.999900e-001	2.411601e-003
4.500800260795996e-005	9.999900e-001	2.502287e-003
4.542760070329583e-005	9.999900e-001	2.697307e-003
4.626679689396758e-005	9.999900e-001	3.132641e-003
4.726679689396757e-005	9.999900e-001	3.727460e-003
4.826679689396757e-005	9.999900e-001	4.418254e-003
4.926679689396757e-005	9.999900e-001	5.216275e-003
5.026679689396757e-005	9.999900e-001	6.128443e-003
5.126679689396756e-005	9.999900e-001	7.161274e-003
5.226679689396756e-005	9.999900e-001	8.321800e-003
5.326679689396756e-005	9.999900e-001	9.619088e-003
5.426679689396755e-005	9.999900e-001	1.106636e-002
5.526679689396755e-005	9.999900e-001	1.268371e-002
5.626679689396755e-005	9.999900e-001	1.450128e-002
5.726679689396755e-005	9.999900e-001	1.656282e-002
5.826679689396754e-005	9.999900e-001	1.890135e-002
5.900000000000000e-005	9.999900e-001	2.078756e-002
5.900100000000001e-005	9.999900e-001	2.079030e-002
5.900300000000001e-005	9.999900e-001	2.079593e-002
5.900700000000002e-005	9.999900e-001	2.080720e-002
5.901500000000004e-005	9.999900e-001	2.082977e-002
5.903100000000007e-005	9.999900e-001	2.087502e-002
5.906300000000014e-005	9.999900e-001	2.096595e-002
5.912700000000028e-005	9.999900e-001	2.114959e-002
5.925500000000056e-005	9.999900e-001	2.152416e-002
5.951100000000113e-005	9.999900e-001	2.228716e-002
5.951200000000113e-005	9.999900e-001	2.229019e-002
5.951400000000113e-005	9.999900e-001	2.229631e-002
5.951800000000114e-005	9.999900e-001	2.230856e-002
5.952600000000116e-005	9.999900e-001	2.233308e-002
5.954200000000119e-005	9.999900e-001	2.238226e-002
5.957400000000126e-005	9.999900e-001	2.248111e-002
5.963800000000140e-005	9.999900e-001	2.268082e-002
5.976600000000168e-005	9.999900e-001	2.308402e-002
5.976700000000169e-005	9.999900e-001	2.308720e-002
5.976900000000169e-005	9.999900e-001	2.309358e-002
5.977300000000170e-005	9.999900e-001	2.310637e-002
5.978100000000172e-005	9.999900e-001	2.313197e-002
5.979700000000175e-005	9.999900e-001	2.318330e-002
5.982900000000182e-005	9.999900e-001	2.328648e-002
5.989300000000196e-005	9.999900e-001	2.349384e-002
5.989400000000197e-005	9.999900e-001	2.349710e-002
5.989600000000197e-005	9.999900e-001	2.350362e-002
5.990000000000198e-005	9.999900e-001	2.351668e-002
5.990800000000200e-005	9.999900e-001	2.354284e-002
5.992400000000203e-005	9.999900e-001	2.359529e-002
5.995600000000210e-005	9.999900e-001	2.370045e-002
5.995900000000211e-005	9.999900e-001	2.371034e-002
5.996300000000212e-005	9.999900e-001	2.372354e-002
5.998399999999997e-005	9.999900e-001	2.379299e-002
5.998699999999997e-005	9.999900e-001	2.380294e-002
6.000000000000000e-005	9.999900e-001	2.384607e-002
6.000082500000000e-005	9.999900e-001	2.384882e-002
6.000090000000000e-005	9.999900e-001	2.384907e-002
6.000100000000000e-005	9.999900e-001	2.384940e-002
6.000100125000000e-005	9.999900e-001	2.384940e-002
6.000100156250000e-005	9.999900e-001	2.384940e-002
6.000100218750000e-005	9.999900e-001	2.384941e-002
6.000100343750000e-005	9.999900e-001	2.384941e-002
6.000100593750000e-005	9.999900e-001	2.384942e-002
6.000685665178612e-005	9.999900e-001	2.386887e-002
6.001270736607225e-005	9.999900e-001	2.388835e-002
6.001855808035837e-005	9.999900e-001	2.390785e-002
6.002440879464450e-005	9.999900e-001	2.392738e-002
6.003025950893062e-005	9.999900e-001	2.394693e-002
6.003611022321674e-005	9.999900e-001	2.396651e-002
6.004196093750287e-005	9.999900e-001	2.398611e-002
6.008292093750573e-005	9.999900e-001	2.412403e-002
6.016484093751146e-005	9.999900e-001	2.440360e-002
6.032868093752292e-005	9.999900e-001	2.497823e-002
6.042458366073393e-005	9.999900e-001	2.531522e-002
6.052048638394494e-005	9.999900e-001	2.565893e-002
6.061638910715595e-005	9.999900e-001	2.600937e-002
6.071229183036696e-005	9.999900e-001	2.636653e-002
6.080819455357797e-005	9.999900e-001	2.673041e-002
6.090409727678899e-005	9.999900e-001	2.710102e-002
6.099999999999999e-005	9.999900e-001	2.747835e-002
6.100099999999999e-005	9.999900e-001	2.748232e-002
6.110632000000022e-005	9.999900e-001	2.790728e-002
6.121164000000046e-005	9.999900e-001	2.834000e-002
6.131696000000068e-005	9.999900e-001	2.878047e-002
6.142228000000092e-005	9.999900e-001	2.922870e-002
6.152760000000115e-005	9.999900e-001	2.968468e-002
6.163292000000139e-005	9.999900e-001	3.014841e-002
6.173824000000161e-005	9.999900e-001	3.061990e-002
6.199168000000217e-005	9.999900e-001	3.179894e-002
6.199680000000218e-005	9.999900e-001	3.182337e-002
6.200704000000220e-005	9.999900e-001	3.187233e-002
6.202752000000225e-005	9.999900e-001	3.197060e-002
6.206848000000234e-005	9.999900e-001	3.216857e-002
6.215040000000251e-005	9.999900e-001	3.257035e-002
6.231424000000288e-005	9.999900e-001	3.339804e-002
6.264192000000360e-005	9.999900e-001	3.515631e-002
6.329728000000504e-005	9.999900e-001	3.906959e-002
6.429728000000503e-005	9.999900e-001	4.598309e-002
