time	V(faa_in)	V(output)
0.000000000000000e+000	1.097053e-015	1.474701e-004
9.999999960041972e-012	2.218989e-009	1.474701e-004
1.999999992008394e-011	5.916188e-009	1.474701e-004
3.999999984016789e-011	1.951284e-008	1.474701e-004
7.999999968033578e-011	7.263728e-008	1.474701e-004
1.599999993606716e-010	2.844797e-007	1.474701e-004
3.199999987213431e-010	1.126597e-006	1.474701e-004
6.399999974426862e-010	4.079320e-006	1.474701e-004
1.000000000000000e-009	8.693811e-006	1.474701e-004
1.653142861782556e-009	2.513036e-005	1.474701e-004
2.306285723565111e-009	4.884510e-005	1.474701e-004
2.959428585347666e-009	7.983802e-005	1.474701e-004
3.612571447130222e-009	1.181091e-004	1.474701e-004
4.265714308912778e-009	1.636584e-004	1.474701e-004
4.918857170695333e-009	2.164859e-004	1.474701e-004
5.572000032477887e-009	2.765916e-004	1.474701e-004
1.018000006521150e-008	8.364823e-004	1.474701e-004
1.939600013067874e-008	2.483789e-003	1.474701e-004
3.782800026161321e-008	6.799947e-003	1.474701e-004
7.469200052348216e-008	1.663308e-002	1.474701e-004
1.023400007198839e-007	2.442523e-002	1.474701e-004
1.392040009817528e-007	3.485084e-002	1.474701e-004
1.484200010472200e-007	3.745534e-002	1.474701e-004
1.668520011781545e-007	4.266198e-002	1.474701e-004
2.037160014400235e-007	5.307028e-002	1.474701e-004
2.774440019637613e-007	7.385883e-002	1.474701e-004
4.249000030112371e-007	1.152644e-001	1.474701e-004
7.198120051061886e-007	1.969213e-001	1.474701e-004
1.309636009296092e-006	3.530467e-001	1.474701e-004
2.309636009296092e-006	5.919917e-001	1.474701e-004
3.309636009296092e-006	7.864196e-001	1.474703e-004
4.309636009296091e-006	9.280778e-001	1.474708e-004
4.797360674059767e-006	9.726773e-001	1.474713e-004
5.160780668707265e-006	9.905916e-001	1.474720e-004
5.528938447578297e-006	9.973342e-001	1.474731e-004
5.878995645219628e-006	9.924767e-001	1.474746e-004
6.416269232580942e-006	9.715984e-001	1.474779e-004
6.422269232580940e-006	9.711921e-001	1.474779e-004
6.524945056497949e-006	9.638024e-001	1.474788e-004
6.627620880414957e-006	9.556344e-001	1.474797e-004
6.730296704331965e-006	9.466881e-001	1.474808e-004
6.832972528248974e-006	9.369635e-001	1.474820e-004
6.935648352165983e-006	9.264605e-001	1.474833e-004
7.038324176082992e-006	9.151792e-001	1.474847e-004
7.141000000000000e-006	9.031196e-001	1.474863e-004
7.141825000000000e-006	9.030194e-001	1.474863e-004
7.141899999999999e-006	9.030103e-001	1.474863e-004
7.142000000000000e-006	9.029981e-001	1.474863e-004
7.142001250000001e-006	9.029980e-001	1.474863e-004
7.142002187500000e-006	9.029979e-001	1.474863e-004
7.142005937500000e-006	9.029974e-001	1.474863e-004
7.142020937500001e-006	9.029956e-001	1.474863e-004
7.142080937500001e-006	9.029883e-001	1.474863e-004
7.268640803571421e-006	8.868569e-001	1.474883e-004
7.395200669642842e-006	8.696896e-001	1.474907e-004
7.521760535714263e-006	8.514863e-001	1.474934e-004
7.648320401785683e-006	8.322470e-001	1.474963e-004
7.774880267857103e-006	8.119718e-001	1.474996e-004
7.901440133928524e-006	7.906606e-001	1.475032e-004
8.027999999999944e-006	7.683134e-001	1.475070e-004
8.141000000000001e-006	7.474774e-001	1.475109e-004
8.141999999999999e-006	7.472895e-001	1.475109e-004
8.266977142856887e-006	7.230542e-001	1.475157e-004
8.391954285713776e-006	6.980672e-001	1.475209e-004
8.516931428570663e-006	6.723284e-001	1.475267e-004
8.641908571427550e-006	6.458378e-001	1.475330e-004
8.766885714284439e-006	6.185956e-001	1.475399e-004
8.891862857141326e-006	5.906015e-001	1.475473e-004
9.016839999998214e-006	5.618558e-001	1.475553e-004
9.018119999998212e-006	5.615564e-001	1.475554e-004
9.018439999998210e-006	5.614815e-001	1.475554e-004
9.019079999998209e-006	5.613317e-001	1.475554e-004
9.020359999998208e-006	5.610322e-001	1.475555e-004
9.022919999998202e-006	5.604328e-001	1.475557e-004
9.028039999998191e-006	5.592328e-001	1.475560e-004
9.038279999998170e-006	5.568286e-001	1.475568e-004
9.058759999998129e-006	5.520027e-001	1.475582e-004
9.099719999998045e-006	5.422826e-001	1.475611e-004
9.181639999997877e-006	5.225770e-001	1.475673e-004
9.345479999997543e-006	4.821756e-001	1.475812e-004
9.673159999996874e-006	3.979990e-001	1.476157e-004
1.032851999999554e-005	2.213688e-001	1.477162e-004
1.132851999999554e-005	-5.577905e-002	1.479600e-004
1.232851999999554e-005	-3.265678e-001	1.483598e-004
1.332851999999554e-005	-5.829799e-001	1.489178e-004
1.332951999999554e-005	-5.832205e-001	1.489185e-004
1.333151999999554e-005	-5.836832e-001	1.489200e-004
1.333551999999554e-005	-5.846065e-001	1.489231e-004
1.334351999999555e-005	-5.864466e-001	1.489292e-004
1.335951999999555e-005	-5.901080e-001	1.489415e-004
1.339151999999557e-005	-5.973744e-001	1.489664e-004
1.345551999999560e-005	-6.117119e-001	1.490175e-004
1.358351999999566e-005	-6.396067e-001	1.491253e-004
1.383951999999579e-005	-6.939153e-001	1.493515e-004
1.384051999999579e-005	-6.941223e-001	1.493524e-004
1.384251999999579e-005	-6.945294e-001	1.493543e-004
1.384651999999580e-005	-6.953427e-001	1.493581e-004
1.385451999999580e-005	-6.969656e-001	1.493657e-004
1.387051999999581e-005	-7.001975e-001	1.493810e-004
1.390251999999582e-005	-7.066066e-001	1.494119e-004
1.396651999999586e-005	-7.192042e-001	1.494754e-004
1.409451999999592e-005	-7.439840e-001	1.496054e-004
1.409551999999592e-005	-7.441748e-001	1.496065e-004
1.409751999999592e-005	-7.445524e-001	1.496086e-004
1.410151999999592e-005	-7.453066e-001	1.496128e-004
1.410951999999593e-005	-7.468114e-001	1.496212e-004
1.412551999999593e-005	-7.498065e-001	1.496382e-004
1.415751999999595e-005	-7.557386e-001	1.496726e-004
1.422151999999598e-005	-7.674933e-001	1.497421e-004
1.422251999999598e-005	-7.676755e-001	1.497432e-004
1.422451999999598e-005	-7.680376e-001	1.497454e-004
1.422851999999599e-005	-7.687610e-001	1.497498e-004
1.423651999999599e-005	-7.702041e-001	1.497587e-004
1.425251999999600e-005	-7.730830e-001	1.497765e-004
1.425399999999998e-005	-7.733487e-001	1.497782e-004
1.425696000000796e-005	-7.738788e-001	1.497815e-004
1.426288000002390e-005	-7.749369e-001	1.497882e-004
1.427472000005579e-005	-7.770492e-001	1.498015e-004
1.427572000005579e-005	-7.772273e-001	1.498026e-004
1.427772000005579e-005	-7.775829e-001	1.498049e-004
1.428172000005580e-005	-7.782936e-001	1.498094e-004
1.428272000005580e-005	-7.784711e-001	1.498105e-004
1.428400000000000e-005	-7.786982e-001	1.498120e-004
1.428500000000000e-005	-7.788756e-001	1.498131e-004
1.428600000000000e-005	-7.790529e-001	1.498142e-004
1.428610000000000e-005	-7.790706e-001	1.498144e-004
1.428630000000000e-005	-7.791061e-001	1.498146e-004
1.428660000000000e-005	-7.791592e-001	1.498149e-004
1.428700000000000e-005	-7.792301e-001	1.498154e-004
1.428772571428572e-005	-7.793587e-001	1.498162e-004
1.428845142857143e-005	-7.794872e-001	1.498170e-004
1.428917714285715e-005	-7.796157e-001	1.498178e-004
1.428990285714286e-005	-7.797442e-001	1.498187e-004
1.429062857142858e-005	-7.798726e-001	1.498195e-004
1.429135428571430e-005	-7.800009e-001	1.498203e-004
1.429208000000001e-005	-7.801293e-001	1.498211e-004
1.429720000000002e-005	-7.810335e-001	1.498270e-004
1.430744000000005e-005	-7.828357e-001	1.498387e-004
1.432792000000009e-005	-7.864155e-001	1.498622e-004
1.436888000000018e-005	-7.935214e-001	1.499098e-004
1.437912000000020e-005	-7.952829e-001	1.499218e-004
1.440472000000026e-005	-7.996527e-001	1.499520e-004
1.441496000000028e-005	-8.013854e-001	1.499643e-004
1.443544000000033e-005	-8.048255e-001	1.499889e-004
1.447640000000042e-005	-8.116034e-001	1.500388e-004
1.455832000000060e-005	-8.247457e-001	1.501419e-004
1.472216000000095e-005	-8.493327e-001	1.503609e-004
1.504984000000167e-005	-8.914064e-001	1.508556e-004
1.570520000000311e-005	-9.576327e-001	1.519929e-004
1.605828697008342e-005	-9.816992e-001	1.527068e-004
1.645305840930659e-005	-9.941972e-001	1.536399e-004
1.692052418819276e-005	-9.931332e-001	1.549104e-004
1.741322398497294e-005	-9.710921e-001	1.564984e-004
1.821215747177258e-005	-8.936322e-001	1.596633e-004
1.921215747177258e-005	-7.399648e-001	1.646346e-004
2.021215747177258e-005	-5.394307e-001	1.706180e-004
2.042700000000000e-005	-4.891212e-001	1.721153e-004
2.085768505645484e-005	-3.804934e-001	1.753961e-004
2.085968505645484e-005	-3.799678e-001	1.754122e-004
2.094073004838986e-005	-3.586159e-001	1.760727e-004
2.102177504032488e-005	-3.371130e-001	1.767448e-004
2.110282003225991e-005	-3.154591e-001	1.774284e-004
2.118386502419493e-005	-2.936543e-001	1.781236e-004
2.126491001612996e-005	-2.716985e-001	1.788302e-004
2.134595500806498e-005	-2.495917e-001	1.795485e-004
2.142700000000000e-005	-2.273339e-001	1.802783e-004
2.142782500000000e-005	-2.271067e-001	1.802858e-004
2.142790000000000e-005	-2.270861e-001	1.802865e-004
2.142800000000000e-005	-2.270585e-001	1.802874e-004
2.142800125000000e-005	-2.270582e-001	1.802874e-004
2.142800218750000e-005	-2.270579e-001	1.802874e-004
2.142800593750000e-005	-2.270569e-001	1.802874e-004
2.142809665178571e-005	-2.270319e-001	1.802883e-004
2.142818736607142e-005	-2.270070e-001	1.802891e-004
2.142827808035713e-005	-2.269820e-001	1.802899e-004
2.142836879464285e-005	-2.269570e-001	1.802907e-004
2.142845950892856e-005	-2.269320e-001	1.802915e-004
2.142855022321428e-005	-2.269070e-001	1.802924e-004
2.142864093749999e-005	-2.268821e-001	1.802932e-004
2.153117236607001e-005	-1.984664e-001	1.812416e-004
2.163370379464004e-005	-1.699543e-001	1.822079e-004
2.173623522321006e-005	-1.413455e-001	1.831922e-004
2.183876665178008e-005	-1.126402e-001	1.841945e-004
2.194129808035011e-005	-8.383840e-002	1.852149e-004
2.204382950892013e-005	-5.494001e-002	1.862531e-004
2.214636093749015e-005	-2.594507e-002	1.873094e-004
2.218645223213442e-005	-1.460749e-002	1.877305e-004
2.222654352677868e-005	-3.272039e-003	1.881548e-004
2.226663482142294e-005	8.061275e-003	1.885823e-004
2.230672611606721e-005	1.939245e-002	1.890131e-004
2.234681741071147e-005	3.072150e-002	1.894472e-004
2.238690870535574e-005	4.204840e-002	1.898845e-004
2.242700000000000e-005	5.337318e-002	1.903251e-004
2.242800000000000e-005	5.365551e-002	1.903362e-004
2.255288571428652e-005	8.894162e-002	1.917372e-004
2.267777142857303e-005	1.240217e-001	1.931688e-004
2.280265714285955e-005	1.588959e-001	1.946309e-004
2.292754285714607e-005	1.935640e-001	1.961236e-004
2.305242857143258e-005	2.280261e-001	1.976468e-004
2.317731428571910e-005	2.622823e-001	1.992005e-004
2.330220000000562e-005	2.963324e-001	2.007848e-004
2.330284000000562e-005	2.965052e-001	2.007930e-004
2.330412000000563e-005	2.968508e-001	2.008095e-004
2.330668000000565e-005	2.975419e-001	2.008425e-004
2.331180000000568e-005	2.989234e-001	2.009085e-004
2.332204000000574e-005	3.016840e-001	2.010407e-004
2.334252000000588e-005	3.071957e-001	2.013060e-004
2.338348000000614e-005	3.181793e-001	2.018400e-004
2.346540000000667e-005	3.399781e-001	2.029218e-004
2.362924000000772e-005	3.828262e-001	2.051410e-004
2.395692000000983e-005	4.649381e-001	2.098055e-004
2.461228000001404e-005	6.135204e-001	2.199422e-004
2.561228000001404e-005	7.995167e-001	2.371578e-004
2.661228000001404e-005	9.366385e-001	2.562136e-004
2.704956070997683e-005	9.747667e-001	2.652856e-004
2.742024108552755e-005	9.914870e-001	2.734706e-004
2.781729712319518e-005	9.971181e-001	2.826132e-004
2.817546067687440e-005	9.941525e-001	2.911035e-004
2.817646067687439e-005	9.941291e-001	2.911277e-004
2.817846067687439e-005	9.940677e-001	2.911764e-004
2.818246067687439e-005	9.939439e-001	2.912740e-004
2.819046067687438e-005	9.936914e-001	2.914692e-004
2.820646067687436e-005	9.931672e-001	2.918603e-004
2.823846067687432e-005	9.920427e-001	2.926447e-004
2.830246067687424e-005	9.894896e-001	2.942227e-004
2.843046067687409e-005	9.838140e-001	2.973958e-004
2.843146067687409e-005	9.837658e-001	2.974207e-004
2.843346067687409e-005	9.836641e-001	2.974707e-004
2.843746067687408e-005	9.834595e-001	2.975707e-004
2.844546067687407e-005	9.830456e-001	2.977707e-004
2.846146067687405e-005	9.821991e-001	2.981715e-004
2.849346067687401e-005	9.804617e-001	2.989744e-004
2.850800000000008e-005	9.796462e-001	2.993400e-004
2.853707864625220e-005	9.779716e-001	3.000725e-004
2.853807864625220e-005	9.779131e-001	3.000977e-004
2.854007864625220e-005	9.777946e-001	3.001481e-004
2.854407864625219e-005	9.775567e-001	3.002491e-004
2.855207864625218e-005	9.770779e-001	3.004512e-004
2.855600000000002e-005	9.768414e-001	3.005503e-004
2.856384270749569e-005	9.763652e-001	3.007486e-004
2.856484270749569e-005	9.763042e-001	3.007739e-004
2.856684270749569e-005	9.761817e-001	3.008245e-004
2.856800000000001e-005	9.761107e-001	3.008537e-004
2.856968541499137e-005	9.760070e-001	3.008964e-004
2.857068541499137e-005	9.759455e-001	3.009217e-004
2.857100000000000e-005	9.759262e-001	3.009297e-004
2.857137082998273e-005	9.759033e-001	3.009390e-004
2.857200000000000e-005	9.758645e-001	3.009550e-004
2.857206291700173e-005	9.758606e-001	3.009566e-004
2.857218875100518e-005	9.758528e-001	3.009598e-004
2.857260915393436e-005	9.758269e-001	3.009704e-004
2.857277502010365e-005	9.758166e-001	3.009746e-004
2.857300000000000e-005	9.758027e-001	3.009803e-004
2.857464235324338e-005	9.757011e-001	3.010219e-004
2.857628470648675e-005	9.755992e-001	3.010635e-004
2.857792705973013e-005	9.754970e-001	3.011051e-004
2.857956941297350e-005	9.753946e-001	3.011467e-004
2.858121176621688e-005	9.752919e-001	3.011883e-004
2.858285411946025e-005	9.751890e-001	3.012299e-004
2.858449647270363e-005	9.750858e-001	3.012715e-004
2.859601544339689e-005	9.743546e-001	3.015638e-004
2.861905338478342e-005	9.728535e-001	3.021493e-004
2.867664823824974e-005	9.689729e-001	3.036172e-004
2.868292196335946e-005	9.685340e-001	3.037776e-004
2.868919568846919e-005	9.680921e-001	3.039381e-004
2.869546941357891e-005	9.676471e-001	3.040987e-004
2.870174313868864e-005	9.671991e-001	3.042594e-004
2.870801686379836e-005	9.667479e-001	3.044202e-004
2.871429058890808e-005	9.662937e-001	3.045810e-004
2.872056431401781e-005	9.658364e-001	3.047420e-004
2.872200418535446e-005	9.657308e-001	3.047789e-004
2.872488392802778e-005	9.655191e-001	3.048528e-004
2.873064341337441e-005	9.650933e-001	3.050008e-004
2.874216238406768e-005	9.642317e-001	3.052969e-004
2.876520032545420e-005	9.624702e-001	3.058905e-004
2.881127620822726e-005	9.587942e-001	3.070821e-004
2.890342797377337e-005	9.508358e-001	3.094840e-004
2.908773150486559e-005	9.325324e-001	3.143615e-004
2.945633856705004e-005	8.867646e-001	3.244067e-004
3.019355269141893e-005	7.673048e-001	3.454323e-004
3.119355269141893e-005	5.611123e-001	3.756070e-004
3.219355269141893e-005	3.146304e-001	4.076693e-004
3.319355269141892e-005	4.316277e-002	4.416324e-004
3.419355269141892e-005	-2.344517e-001	4.771916e-004
3.471300000000001e-005	-3.761047e-001	4.962435e-004
3.471400000000001e-005	-3.763698e-001	4.962808e-004
3.471600000000001e-005	-3.768927e-001	4.963560e-004
3.472000000000002e-005	-3.779383e-001	4.965063e-004
3.472800000000004e-005	-3.800288e-001	4.968072e-004
3.474400000000007e-005	-3.842043e-001	4.974094e-004
3.477600000000014e-005	-3.925281e-001	4.986154e-004
3.484000000000028e-005	-4.090534e-001	5.010345e-004
3.496800000000056e-005	-4.415720e-001	5.059016e-004
3.522400000000113e-005	-5.055816e-001	5.156900e-004
3.522500000000113e-005	-5.058280e-001	5.157284e-004
3.522700000000113e-005	-5.063159e-001	5.158055e-004
3.523100000000114e-005	-5.072911e-001	5.159597e-004
3.523900000000116e-005	-5.092387e-001	5.162683e-004
3.525500000000119e-005	-5.131233e-001	5.168859e-004
3.528700000000126e-005	-5.208520e-001	5.181229e-004
3.535100000000140e-005	-5.361453e-001	5.206047e-004
3.547900000000168e-005	-5.664212e-001	5.255827e-004
3.548000000000169e-005	-5.666556e-001	5.256217e-004
3.548200000000169e-005	-5.671214e-001	5.256998e-004
3.548600000000170e-005	-5.680524e-001	5.258560e-004
3.549400000000172e-005	-5.699115e-001	5.261687e-004
3.551000000000175e-005	-5.736185e-001	5.267946e-004
3.554200000000182e-005	-5.809880e-001	5.280481e-004
3.560600000000196e-005	-5.956426e-001	5.305592e-004
3.560900000000197e-005	-5.963244e-001	5.306771e-004
3.561300000000198e-005	-5.972316e-001	5.308344e-004
3.562100000000200e-005	-5.990431e-001	5.311492e-004
3.563700000000203e-005	-6.026546e-001	5.317793e-004
3.566900000000210e-005	-6.098555e-001	5.330404e-004
3.567200000000211e-005	-6.105278e-001	5.331588e-004
3.568400000000213e-005	-6.132102e-001	5.336325e-004
3.569799999999997e-005	-6.163334e-001	5.341855e-004
3.570499999999998e-005	-6.178907e-001	5.344622e-004
3.571300000000000e-005	-6.196676e-001	5.347785e-004
3.571382500000001e-005	-6.198506e-001	5.348111e-004
3.571390000000000e-005	-6.198673e-001	5.348140e-004
3.571400000000000e-005	-6.198894e-001	5.348180e-004
3.571400156250001e-005	-6.198898e-001	5.348180e-004
3.571400343750000e-005	-6.198902e-001	5.348182e-004
3.571401093750000e-005	-6.198919e-001	5.348184e-004
3.571402093750000e-005	-6.198941e-001	5.348189e-004
3.571404093750000e-005	-6.198986e-001	5.348196e-004
3.576084665178582e-005	-6.302193e-001	5.366736e-004
3.580765236607164e-005	-6.403938e-001	5.385340e-004
3.585445808035745e-005	-6.504220e-001	5.404008e-004
3.590126379464328e-005	-6.603041e-001	5.422740e-004
3.594806950892909e-005	-6.700399e-001	5.441536e-004
3.599487522321491e-005	-6.796294e-001	5.460397e-004
3.604168093750072e-005	-6.890728e-001	5.479321e-004
3.613758366071491e-005	-7.087499e-001	5.517948e-004
3.623348638392909e-005	-7.278182e-001	5.556846e-004
3.632938910714327e-005	-7.462775e-001	5.596012e-004
3.642529183035745e-005	-7.641279e-001	5.635449e-004
3.652119455357164e-005	-7.813695e-001	5.675155e-004
3.661709727678581e-005	-7.980021e-001	5.715131e-004
3.671300000000000e-005	-8.140259e-001	5.755377e-004
3.671400000000000e-005	-8.141901e-001	5.755798e-004
3.683852000000133e-005	-8.339083e-001	5.808532e-004
3.696304000000266e-005	-8.526269e-001	5.861795e-004
3.708756000000399e-005	-8.703458e-001	5.915585e-004
3.721208000000531e-005	-8.870650e-001	5.969903e-004
3.733660000000665e-005	-9.027847e-001	6.024749e-004
3.746112000000797e-005	-9.175046e-001	6.080124e-004
3.758564000000930e-005	-9.312249e-001	6.136026e-004
3.758820000000933e-005	-9.314883e-001	6.137185e-004
3.759332000000939e-005	-9.320132e-001	6.139506e-004
3.760356000000949e-005	-9.330555e-001	6.144150e-004
3.762404000000971e-005	-9.351107e-001	6.153458e-004
3.766500000001015e-005	-9.391032e-001	6.172142e-004
3.774692000001102e-005	-9.466130e-001	6.209804e-004
3.791076000001277e-005	-9.597075e-001	6.286385e-004
3.823844000001626e-005	-9.801199e-001	6.443587e-004
3.857485907449009e-005	-9.924904e-001	6.611742e-004
3.904404756956934e-005	-9.951737e-001	6.859346e-004
3.947483870919602e-005	-9.811137e-001	7.105400e-004
4.017465327870314e-005	-9.233359e-001	7.558785e-004
4.117465327870314e-005	-7.898989e-001	8.312843e-004
4.185800000000001e-005	-6.711549e-001	8.900375e-004
4.185900000000001e-005	-6.709551e-001	8.901321e-004
4.186100000000001e-005	-6.705358e-001	8.903291e-004
4.186500000000002e-005	-6.696965e-001	8.907235e-004
4.187300000000004e-005	-6.680142e-001	8.915139e-004
4.188900000000007e-005	-6.646366e-001	8.931007e-004
4.192100000000014e-005	-6.578298e-001	8.962993e-004
4.198500000000028e-005	-6.440172e-001	9.027975e-004
4.211300000000056e-005	-6.156271e-001	9.162159e-004
4.236900000000113e-005	-5.574439e-001	9.438574e-004
4.237000000000113e-005	-5.572120e-001	9.439681e-004
4.237200000000113e-005	-5.567421e-001	9.441934e-004
4.237600000000114e-005	-5.558016e-001	9.446444e-004
4.238400000000116e-005	-5.539182e-001	9.455482e-004
4.240000000000119e-005	-5.501414e-001	9.473632e-004
4.243200000000126e-005	-5.425469e-001	9.510225e-004
4.249600000000140e-005	-5.271955e-001	9.584610e-004
4.262400000000168e-005	-4.961911e-001	9.735649e-004
4.262500000000169e-005	-4.959468e-001	9.736845e-004
4.262700000000169e-005	-4.954556e-001	9.739258e-004
4.263100000000170e-005	-4.944726e-001	9.744088e-004
4.263900000000172e-005	-4.925042e-001	9.753768e-004
4.265500000000175e-005	-4.885582e-001	9.773207e-004
4.268700000000182e-005	-4.806294e-001	9.812404e-004
4.275100000000196e-005	-4.647028e-001	9.891401e-004
