time	V(faa_in)	V(output)
0.000000000000000e+000	1.097053e-015	1.474701e-004
9.999999960041972e-012	-1.081329e-013	1.474701e-004
1.999999992008394e-011	-3.539815e-013	1.474701e-004
3.999999984016789e-011	-1.729519e-012	1.474701e-004
7.999999968033578e-011	-1.036419e-011	1.474701e-004
1.599999993606716e-010	-5.587312e-011	1.474701e-004
3.199999987213431e-010	-7.148156e-011	1.474701e-004
6.399999974426862e-010	1.833679e-009	1.474701e-004
1.000000000000000e-009	7.479065e-009	1.474701e-004
1.653142861782556e-009	2.078964e-008	1.474701e-004
2.306285723565111e-009	1.567442e-007	1.474701e-004
2.959428585347666e-009	4.153427e-007	1.474701e-004
3.612571447130222e-009	7.965852e-007	1.474701e-004
4.265714308912778e-009	1.300472e-006	1.474701e-004
4.918857170695333e-009	1.927002e-006	1.474701e-004
5.572000032477887e-009	2.676177e-006	1.474701e-004
1.018000006521150e-008	1.395013e-005	1.474701e-004
1.939600013067874e-008	6.688970e-005	1.474701e-004
3.782800026161321e-008	2.668159e-004	1.474701e-004
7.469200052348216e-008	8.216454e-004	1.474701e-004
1.023400007198839e-007	1.329473e-003	1.474701e-004
1.392040009817528e-007	2.023788e-003	1.474701e-004
1.484200010472200e-007	2.197523e-003	1.474701e-004
1.668520011781545e-007	2.545004e-003	1.474701e-004
2.037160014400235e-007	3.239887e-003	1.474701e-004
2.774440019637613e-007	4.629588e-003	1.474701e-004
4.249000030112371e-007	7.408933e-003	1.474701e-004
7.198120051061886e-007	1.296729e-002	1.474701e-004
1.309636009296092e-006	2.408184e-002	1.474701e-004
2.309636009296092e-006	4.291774e-002	1.474701e-004
3.309636009296092e-006	6.173913e-002	1.474703e-004
4.309636009296091e-006	8.053859e-002	1.474710e-004
5.309636009296091e-006	9.930943e-002	1.474734e-004
6.309636009296091e-006	1.180450e-001	1.474800e-004
7.309636009296091e-006	1.367386e-001	1.474961e-004
8.334000000000000e-006	1.558511e-001	1.475244e-004
8.945176148737456e-006	1.672199e-001	1.475584e-004
8.951176148737459e-006	1.673314e-001	1.475588e-004
9.334000000000001e-006	1.744412e-001	1.475887e-004
9.334825000000001e-006	1.744565e-001	1.475888e-004
9.334900000000003e-006	1.744579e-001	1.475888e-004
9.335000000000000e-006	1.744597e-001	1.475888e-004
9.335001250000000e-006	1.744597e-001	1.475888e-004
9.335001562500000e-006	1.744598e-001	1.475888e-004
9.335002187499999e-006	1.744598e-001	1.475888e-004
9.335003437499999e-006	1.744598e-001	1.475888e-004
9.335005937500000e-006	1.744598e-001	1.475888e-004
9.335010937500000e-006	1.744599e-001	1.475888e-004
9.335020937499999e-006	1.744601e-001	1.475888e-004
9.335040937499999e-006	1.744605e-001	1.475888e-004
9.335080937499998e-006	1.744612e-001	1.475888e-004
9.440395223212731e-006	1.764152e-001	1.475987e-004
9.545709508925462e-006	1.783686e-001	1.476093e-004
9.651023794638195e-006	1.803214e-001	1.476206e-004
9.756338080350928e-006	1.822735e-001	1.476326e-004
9.861652366063662e-006	1.842250e-001	1.476453e-004
9.966966651776393e-006	1.861759e-001	1.476587e-004
1.007228093748913e-005	1.881262e-001	1.476728e-004
1.023612093748671e-005	1.911587e-001	1.476969e-004
1.024124093748663e-005	1.912534e-001	1.476977e-004
1.025148093748648e-005	1.914428e-001	1.476993e-004
1.031292093748558e-005	1.925793e-001	1.477092e-004
1.039484093748437e-005	1.940941e-001	1.477232e-004
1.055868093748195e-005	1.971220e-001	1.477537e-004
1.088636093747712e-005	2.031705e-001	1.478276e-004
1.154172093746746e-005	2.152413e-001	1.480310e-004
1.254172093746746e-005	2.336012e-001	1.484946e-004
1.354172093746746e-005	2.518845e-001	1.492112e-004
1.454172093746746e-005	2.700784e-001	1.503049e-004
1.554172093746746e-005	2.881987e-001	1.517638e-004
1.566700000000000e-005	2.904615e-001	1.519890e-004
1.591755812506509e-005	2.949766e-001	1.525045e-004
1.616588374986982e-005	2.994474e-001	1.530440e-004
1.617034875039055e-005	2.995277e-001	1.530541e-004
1.617927875143201e-005	2.996883e-001	1.530749e-004
1.619713875351493e-005	3.000094e-001	1.531166e-004
1.623285875768076e-005	3.006516e-001	1.532009e-004
1.630429876601243e-005	3.019354e-001	1.533736e-004
1.666672104561621e-005	3.084411e-001	1.543047e-004
1.666700000000000e-005	3.084461e-001	1.543054e-004
1.666702789543838e-005	3.084466e-001	1.543055e-004
1.666708368631514e-005	3.084476e-001	1.543057e-004
1.666719526806866e-005	3.084496e-001	1.543060e-004
1.666755367298593e-005	3.084560e-001	1.543069e-004
1.666772951717954e-005	3.084592e-001	1.543074e-004
1.666800000000000e-005	3.084640e-001	1.543082e-004
1.666818933797432e-005	3.084674e-001	1.543087e-004
1.666970404176890e-005	3.084946e-001	1.543128e-004
1.667143513181985e-005	3.085256e-001	1.543176e-004
1.667489731192175e-005	3.085877e-001	1.543270e-004
1.668182167212555e-005	3.087118e-001	1.543460e-004
1.669567039253314e-005	3.089601e-001	1.543842e-004
1.672336783334832e-005	3.094566e-001	1.544612e-004
1.677876271497869e-005	3.104493e-001	1.546165e-004
1.680299797569197e-005	3.108835e-001	1.546853e-004
1.681684669609956e-005	3.111316e-001	1.547250e-004
1.684454413691475e-005	3.116277e-001	1.548050e-004
1.689993901854511e-005	3.126196e-001	1.549678e-004
1.701072878180585e-005	3.146020e-001	1.553043e-004
1.723230830832731e-005	3.185616e-001	1.560235e-004
1.767546736137024e-005	3.264597e-001	1.576648e-004
1.856178546745610e-005	3.421888e-001	1.616380e-004
1.956178546745610e-005	3.598331e-001	1.672741e-004
2.056178546745610e-005	3.773528e-001	1.744468e-004
2.156178546745610e-005	3.947386e-001	1.834337e-004
2.256178546745610e-005	4.119840e-001	1.944669e-004
2.356178546745610e-005	4.290831e-001	2.077549e-004
2.456178546745610e-005	4.460521e-001	2.231082e-004
2.512257093491221e-005	4.555035e-001	2.327593e-004
2.551471626035118e-005	4.620712e-001	2.401796e-004
2.570399308877088e-005	4.652334e-001	2.438889e-004
2.571799308877081e-005	4.654670e-001	2.441685e-004
2.599798086875967e-005	4.701315e-001	2.498685e-004
2.599900000000001e-005	4.701484e-001	2.498896e-004
2.599903826248070e-005	4.701490e-001	2.498904e-004
2.599911478744209e-005	4.701503e-001	2.498920e-004
2.599926783736487e-005	4.701529e-001	2.498952e-004
2.600100000000000e-005	4.701817e-001	2.499311e-004
2.600162349114781e-005	4.701920e-001	2.499440e-004
2.600181174557391e-005	4.701952e-001	2.499479e-004
2.600189242604223e-005	4.701965e-001	2.499496e-004
2.600200000000000e-005	4.701983e-001	2.499518e-004
2.600200134467447e-005	4.701983e-001	2.499518e-004
2.600200168084309e-005	4.701983e-001	2.499518e-004
2.600200235318033e-005	4.701983e-001	2.499518e-004
2.600200369785480e-005	4.701984e-001	2.499519e-004
2.600200638720374e-005	4.701984e-001	2.499519e-004
2.600201176590163e-005	4.701985e-001	2.499520e-004
2.600202252329741e-005	4.701987e-001	2.499523e-004
2.600204403808896e-005	4.701990e-001	2.499527e-004
2.600217312683829e-005	4.702012e-001	2.499554e-004
2.600268948183559e-005	4.702098e-001	2.499661e-004
2.613104058116480e-005	4.723427e-001	2.526638e-004
2.625939168049400e-005	4.744731e-001	2.554017e-004
2.638774277982321e-005	4.766011e-001	2.581797e-004
2.651609387915242e-005	4.787265e-001	2.609978e-004
2.664444497848162e-005	4.808494e-001	2.638561e-004
2.677279607781083e-005	4.829698e-001	2.667545e-004
2.690114717714003e-005	4.850878e-001	2.696930e-004
2.690390107045897e-005	4.851332e-001	2.697568e-004
2.690940885709686e-005	4.852239e-001	2.698843e-004
2.692042443037262e-005	4.854055e-001	2.701398e-004
2.694245557692414e-005	4.857685e-001	2.706518e-004
2.698651787002720e-005	4.864941e-001	2.716808e-004
2.707464245623331e-005	4.879442e-001	2.737580e-004
2.725089162864552e-005	4.908393e-001	2.779891e-004
2.760338997346994e-005	4.966089e-001	2.867539e-004
2.830838666311879e-005	5.080778e-001	3.052806e-004
2.930838666311880e-005	5.242065e-001	3.334144e-004
3.030838666311880e-005	5.401621e-001	3.636416e-004
3.130838666311879e-005	5.559258e-001	3.958883e-004
3.230838666311879e-005	5.715415e-001	4.295079e-004
3.233400000000001e-005	5.719388e-001	4.303904e-004
3.238522667376244e-005	5.727304e-001	4.321779e-004
3.248768002128730e-005	5.743116e-001	4.357654e-004
3.269258671633703e-005	5.774677e-001	4.429772e-004
3.292418660990055e-005	5.810286e-001	4.511655e-004
3.292518660990055e-005	5.810440e-001	4.512010e-004
3.292718660990055e-005	5.810747e-001	4.512721e-004
3.293118660990056e-005	5.811360e-001	4.514143e-004
3.293918660990058e-005	5.812587e-001	4.516987e-004
3.295518660990061e-005	5.815040e-001	4.522679e-004
3.298718660990068e-005	5.819946e-001	4.534074e-004
3.305118660990082e-005	5.829748e-001	4.556902e-004
3.317918660990110e-005	5.849338e-001	4.602631e-004
3.318018660990111e-005	5.849491e-001	4.602988e-004
3.318218660990111e-005	5.849797e-001	4.603705e-004
3.318618660990112e-005	5.850408e-001	4.605137e-004
3.319418660990114e-005	5.851631e-001	4.608003e-004
3.321018660990117e-005	5.854076e-001	4.613736e-004
3.324218660990124e-005	5.858965e-001	4.625209e-004
3.326999999999986e-005	5.863213e-001	4.635186e-004
3.327837321980276e-005	5.864491e-001	4.638191e-004
3.329511965940856e-005	5.867048e-001	4.644204e-004
3.330050712078841e-005	5.867870e-001	4.646139e-004
3.331128204354810e-005	5.869515e-001	4.650010e-004
3.331245015448062e-005	5.869693e-001	4.650429e-004
3.331478637634567e-005	5.870050e-001	4.651269e-004
3.331945882007578e-005	5.870762e-001	4.652948e-004
3.332465511253980e-005	5.871555e-001	4.654815e-004
3.332565511253980e-005	5.871708e-001	4.655174e-004
3.332765511253981e-005	5.872013e-001	4.655893e-004
3.332999999999999e-005	5.872371e-001	4.656736e-004
3.333100000000000e-005	5.872523e-001	4.657095e-004
3.333200000000000e-005	5.872676e-001	4.657455e-004
3.333300000000000e-005	5.872828e-001	4.657814e-004
3.333400000000000e-005	5.872981e-001	4.658174e-004
3.333410000000000e-005	5.872996e-001	4.658210e-004
3.333430000000000e-005	5.873027e-001	4.658282e-004
3.333460000000000e-005	5.873073e-001	4.658390e-004
3.333500000000001e-005	5.873134e-001	4.658533e-004
3.333504000000001e-005	5.873140e-001	4.658548e-004
3.333512000000001e-005	5.873152e-001	4.658577e-004
3.333528000000001e-005	5.873176e-001	4.658634e-004
3.333624000000001e-005	5.873323e-001	4.658979e-004
3.333752000000001e-005	5.873518e-001	4.659439e-004
3.334008000000002e-005	5.873908e-001	4.660360e-004
3.334520000000003e-005	5.874690e-001	4.662201e-004
3.335544000000005e-005	5.876251e-001	4.665884e-004
3.337592000000010e-005	5.879374e-001	4.673253e-004
3.342712000000021e-005	5.887178e-001	4.691688e-004
3.346296000000029e-005	5.892637e-001	4.704607e-004
3.348344000000033e-005	5.895755e-001	4.711995e-004
3.352440000000042e-005	5.901989e-001	4.726783e-004
3.360632000000060e-005	5.914441e-001	4.756410e-004
3.377016000000096e-005	5.939293e-001	4.815839e-004
3.409784000000168e-005	5.988784e-001	4.935258e-004
3.475320000000312e-005	6.087009e-001	5.175244e-004
3.575320000000311e-005	6.235263e-001	5.541759e-004
3.675320000000311e-005	6.381486e-001	5.905429e-004
3.775320000000311e-005	6.525443e-001	6.261989e-004
3.875320000000310e-005	6.667080e-001	6.607272e-004
3.975320000000310e-005	6.806350e-001	6.937917e-004
4.075320000000310e-005	6.943200e-001	7.251895e-004
4.175320000000310e-005	7.078212e-001	7.552885e-004
4.175620000000310e-005	7.078612e-001	7.553753e-004
4.176020000000311e-005	7.079145e-001	7.554906e-004
4.176820000000313e-005	7.080210e-001	7.557209e-004
4.183905714286043e-005	7.089628e-001	7.577528e-004
4.190991428571773e-005	7.099036e-001	7.597789e-004
4.198077142857503e-005	7.108433e-001	7.617990e-004
4.205162857143232e-005	7.117821e-001	7.638132e-004
4.212248571428962e-005	7.127198e-001	7.658216e-004
4.219334285714692e-005	7.136565e-001	7.678241e-004
4.226420000000422e-005	7.145922e-001	7.698207e-004
4.226720000000422e-005	7.146317e-001	7.699050e-004
4.227120000000423e-005	7.146844e-001	7.700173e-004
4.230677142857574e-005	7.151530e-001	7.710139e-004
4.234234285714724e-005	7.156214e-001	7.720092e-004
4.237791428571875e-005	7.160895e-001	7.730033e-004
4.241348571429026e-005	7.165573e-001	7.739961e-004
4.244905714286177e-005	7.170249e-001	7.749876e-004
4.248462857143327e-005	7.174922e-001	7.759779e-004
4.252020000000478e-005	7.179593e-001	7.769670e-004
4.252220000000478e-005	7.179855e-001	7.770224e-004
4.266800000000001e-005	7.198957e-001	7.810577e-004
4.266830000000001e-005	7.198996e-001	7.810660e-004
4.266865000000000e-005	7.199042e-001	7.810756e-004
4.266875000000000e-005	7.199055e-001	7.810784e-004
4.266877500000001e-005	7.199059e-001	7.810791e-004
4.266882500000000e-005	7.199065e-001	7.810805e-004
4.266890000000001e-005	7.199075e-001	7.810825e-004
4.266900000000000e-005	7.199088e-001	7.810853e-004
4.266900125000000e-005	7.199088e-001	7.810853e-004
4.266900156250000e-005	7.199088e-001	7.810853e-004
4.266900218750000e-005	7.199088e-001	7.810853e-004
4.266900343750000e-005	7.199088e-001	7.810853e-004
4.266900593750000e-005	7.199088e-001	7.810855e-004
4.266901093750000e-005	7.199089e-001	7.810856e-004
4.266902093750000e-005	7.199091e-001	7.810859e-004
4.266904093750000e-005	7.199093e-001	7.810864e-004
4.266908093750000e-005	7.199098e-001	7.810875e-004
4.266916093750000e-005	7.199109e-001	7.810897e-004
4.266932093750000e-005	7.199129e-001	7.810941e-004
4.277460093750023e-005	7.212877e-001	7.839888e-004
4.287988093750047e-005	7.226599e-001	7.868766e-004
4.298516093750069e-005	7.240296e-001	7.897575e-004
4.309044093750092e-005	7.253968e-001	7.926315e-004
4.319572093750115e-005	7.267615e-001	7.954987e-004
4.330100093750139e-005	7.281236e-001	7.983589e-004
4.340628093750162e-005	7.294833e-001	8.012123e-004
4.357012093750198e-005	7.315932e-001	8.056482e-004
4.357524093750199e-005	7.316591e-001	8.057868e-004
4.358548093750202e-005	7.317905e-001	8.060638e-004
4.360596093750206e-005	7.320535e-001	8.066178e-004
4.364692093750215e-005	7.325790e-001	8.077259e-004
4.372884093750233e-005	7.336285e-001	8.099426e-004
4.389268093750269e-005	7.357209e-001	8.143841e-004
4.422036093750341e-005	7.398794e-001	8.233520e-004
4.487572093750484e-005	7.481032e-001	8.419310e-004
4.587572093750484e-005	7.604524e-001	8.727200e-004
4.687572093750484e-005	7.725542e-001	9.085299e-004
4.787572093750484e-005	7.843814e-001	9.530135e-004
4.887572093750483e-005	7.959920e-001	1.006534e-003
4.900100000000001e-005	7.974256e-001	1.014345e-003
4.925155812499036e-005	8.002643e-001	1.031717e-003
4.949988375001931e-005	8.030666e-001	1.049720e-003
4.950434874994211e-005	8.031167e-001	1.050056e-003
4.951327874978770e-005	8.032170e-001	1.050740e-003
4.953113874947890e-005	8.034174e-001	1.052116e-003
4.956685874886129e-005	8.038180e-001	1.054893e-003
4.963829874762607e-005	8.046178e-001	1.060558e-003
4.978117874515562e-005	8.062147e-001	1.072093e-003
4.978217874515563e-005	8.062258e-001	1.072175e-003
4.978417874515563e-005	8.062481e-001	1.072341e-003
4.978817874515564e-005	8.062927e-001	1.072673e-003
4.979617874515566e-005	8.063819e-001	1.073338e-003
4.981217874515569e-005	8.065602e-001	1.074674e-003
4.984417874515576e-005	8.069165e-001	1.077369e-003
4.990817874515590e-005	8.076286e-001	1.082803e-003
4.990917874515590e-005	8.076397e-001	1.082889e-003
4.991117874515591e-005	8.076619e-001	1.083061e-003
4.991517874515592e-005	8.077064e-001	1.083405e-003
4.992317874515593e-005	8.077953e-001	1.084095e-003
4.993917874515597e-005	8.079730e-001	1.085481e-003
4.997117874515604e-005	8.083282e-001	1.088263e-003
4.997217874515604e-005	8.083394e-001	1.088351e-003
4.997417874515605e-005	8.083615e-001	1.088526e-003
4.997817874515606e-005	8.084059e-001	1.088876e-003
4.998617874515607e-005	8.084946e-001	1.089578e-003
4.998717874515607e-005	8.085058e-001	1.089666e-003
4.998917874515608e-005	8.085279e-001	1.089841e-003
4.999317874515609e-005	8.085723e-001	1.090193e-003
4.999417874515609e-005	8.085834e-001	1.090281e-003
4.999617874515609e-005	8.086056e-001	1.090457e-003
4.999700000000000e-005	8.086147e-001	1.090530e-003
4.999864250968780e-005	8.086329e-001	1.090674e-003
4.999964250968780e-005	8.086440e-001	1.090763e-003
5.000000000000000e-005	8.086479e-001	1.090794e-003
5.000028501937560e-005	8.086511e-001	1.090819e-003
5.000042996124880e-005	8.086527e-001	1.090832e-003
5.000071984499521e-005	8.086559e-001	1.090858e-003
5.000100000000001e-005	8.086590e-001	1.090882e-003
5.000102801550049e-005	8.086593e-001	1.090885e-003
5.000108404650145e-005	8.086600e-001	1.090890e-003
5.000119610850336e-005	8.086612e-001	1.090900e-003
5.000155175199233e-005	8.086652e-001	1.090931e-003
5.000173696102976e-005	8.086672e-001	1.090947e-003
5.000200000000001e-005	8.086701e-001	1.090970e-003
5.000207891169108e-005	8.086710e-001	1.090977e-003
5.000239455845537e-005	8.086745e-001	1.091005e-003
5.000365714551254e-005	8.086885e-001	1.091117e-003
5.000870749374122e-005	8.087445e-001	1.091563e-003
5.001544129137946e-005	8.088191e-001	1.092159e-003
5.002890888665595e-005	8.089683e-001	1.093356e-003
5.005584407720892e-005	8.092666e-001	1.095767e-003
5.010971445831485e-005	8.098627e-001	1.100629e-003
5.012318205359134e-005	8.100116e-001	1.101855e-003
5.015011724414431e-005	8.103091e-001	1.104333e-003
5.020398762525025e-005	8.109034e-001	1.109360e-003
5.031172838746211e-005	8.120888e-001	1.119714e-003
5.052720991188586e-005	8.144471e-001	1.141683e-003
5.095817296073335e-005	8.191130e-001	1.191211e-003
5.182009905842833e-005	8.282866e-001	1.309843e-003
5.282009905842832e-005	8.386869e-001	1.481903e-003
5.382009905842832e-005	8.487992e-001	1.701006e-003
5.482009905842832e-005	8.586100e-001	1.977330e-003
5.582009905842831e-005	8.681158e-001	2.319982e-003
5.682009905842831e-005	8.773130e-001	2.738101e-003
5.782009905842831e-005	8.862369e-001	3.229154e-003
5.833500000000001e-005	8.907303e-001	3.510733e-003
5.833600000000001e-005	8.907389e-001	3.511315e-003
5.833800000000002e-005	8.907561e-001	3.512504e-003
5.834200000000003e-005	8.907903e-001	3.514885e-003
5.835000000000004e-005	8.908588e-001	3.519651e-003
5.836600000000008e-005	8.909957e-001	3.529207e-003
5.859000000000057e-005	8.929020e-001	3.666353e-003
5.884600000000113e-005	8.950667e-001	3.827539e-003
5.884900000000114e-005	8.950919e-001	3.829470e-003
5.885300000000115e-005	8.951254e-001	3.832057e-003
5.886100000000116e-005	8.951927e-001	3.837235e-003
5.897300000000141e-005	8.961309e-001	3.910610e-003
5.910100000000169e-005	8.971995e-001	3.995621e-003
5.910400000000170e-005	8.972245e-001	3.997636e-003
5.913200000000176e-005	8.974574e-001	4.016529e-003
5.922900000000197e-005	8.982623e-001	4.082567e-003
5.924300000000200e-005	8.983783e-001	4.092186e-003
5.933500000000001e-005	8.991385e-001	4.155895e-003
5.933565000000001e-005	8.991439e-001	4.156348e-003
5.933577500000001e-005	8.991449e-001	4.156435e-003
5.933582500000000e-005	8.991453e-001	4.156470e-003
5.933590000000001e-005	8.991460e-001	4.156523e-003
5.933600000000000e-005	8.991467e-001	4.156593e-003
5.933600125000000e-005	8.991468e-001	4.156593e-003
5.933600156250000e-005	8.991468e-001	4.156594e-003
5.933600218750000e-005	8.991468e-001	4.156594e-003
5.933600343750000e-005	8.991468e-001	4.156595e-003
5.933600593750000e-005	8.991468e-001	4.156596e-003
5.933601093750000e-005	8.991469e-001	4.156600e-003
5.933602093750000e-005	8.991469e-001	4.156607e-003
5.933604093750000e-005	8.991471e-001	4.156621e-003
5.933608093750000e-005	8.991475e-001	4.156649e-003
5.933616093750000e-005	8.991481e-001	4.156705e-003
5.933664093750000e-005	8.991520e-001	4.157040e-003
5.934825236607146e-005	8.992478e-001	4.165150e-003
5.935986379464291e-005	8.993435e-001	4.173278e-003
5.937147522321436e-005	8.994391e-001	4.181425e-003
5.938308665178582e-005	8.995347e-001	4.189589e-003
5.939469808035727e-005	8.996302e-001	4.197772e-003
5.940630950892873e-005	8.997257e-001	4.205974e-003
5.941792093750018e-005	8.998212e-001	4.214193e-003
5.949984093750036e-005	9.004928e-001	4.272710e-003
5.966368093750072e-005	9.018282e-001	4.392533e-003
5.999136093750144e-005	9.044815e-001	4.638342e-003
6.007328093750162e-005	9.051400e-001	4.701574e-003
6.023712093750198e-005	9.064497e-001	4.830675e-003
6.024224093750200e-005	9.064906e-001	4.834745e-003
6.025248093750202e-005	9.065720e-001	4.842943e-003
6.027296093750206e-005	9.067347e-001	4.859386e-003
6.031392093750215e-005	9.070598e-001	4.892455e-003
6.039584093750233e-005	9.077079e-001	4.959341e-003
