time	V(faa_in)	V(output)
0.000000000000000e+000	1.097053e-015	1.474701e-004
9.999999960041972e-012	-5.351792e-014	1.474701e-004
1.999999992008394e-011	-1.764422e-013	1.474701e-004
3.999999984016789e-011	-8.642111e-013	1.474701e-004
7.999999968033578e-011	-5.181547e-012	1.474701e-004
1.599999993606716e-010	-2.793601e-011	1.474701e-004
3.199999987213431e-010	-3.574023e-011	1.474701e-004
6.399999974426862e-010	9.168401e-010	1.474701e-004
1.000000000000000e-009	3.739533e-009	1.474701e-004
1.653142861782556e-009	1.039482e-008	1.474701e-004
2.306285723565111e-009	7.837210e-008	1.474701e-004
2.959428585347666e-009	2.076714e-007	1.474701e-004
3.612571447130222e-009	3.982926e-007	1.474701e-004
4.265714308912778e-009	6.502358e-007	1.474701e-004
4.918857170695333e-009	9.635011e-007	1.474701e-004
5.572000032477887e-009	1.338088e-006	1.474701e-004
1.018000006521150e-008	6.975064e-006	1.474701e-004
1.939600013067874e-008	3.344485e-005	1.474701e-004
3.782800026161321e-008	1.334080e-004	1.474701e-004
7.469200052348216e-008	4.108227e-004	1.474701e-004
1.023400007198839e-007	6.647365e-004	1.474701e-004
1.392040009817528e-007	1.011894e-003	1.474701e-004
1.484200010472200e-007	1.098762e-003	1.474701e-004
1.668520011781545e-007	1.272503e-003	1.474701e-004
2.037160014400235e-007	1.619946e-003	1.474701e-004
2.774440019637613e-007	2.314802e-003	1.474701e-004
4.249000030112371e-007	3.704504e-003	1.474701e-004
7.198120051061886e-007	6.483867e-003	1.474701e-004
1.309636009296092e-006	1.204232e-002	1.474701e-004
2.309636009296092e-006	2.146525e-002	1.474701e-004
3.309636009296092e-006	3.088637e-002	1.474703e-004
4.309636009296091e-006	4.030474e-002	1.474710e-004
5.309636009296091e-006	4.971953e-002	1.474734e-004
6.309636009296091e-006	5.912991e-002	1.474800e-004
7.309636009296091e-006	6.853503e-002	1.474961e-004
8.309636009296091e-006	7.793406e-002	1.475319e-004
9.309636009296092e-006	8.732658e-002	1.476006e-004
1.011200000000000e-005	9.485861e-002	1.476833e-004
1.011800000000000e-005	9.491491e-002	1.476842e-004
1.025985714285715e-005	9.624573e-002	1.477055e-004
1.040171428571429e-005	9.757638e-002	1.477291e-004
1.054357142857143e-005	9.890686e-002	1.477550e-004
1.068542857142857e-005	1.002372e-001	1.477832e-004
1.082728571428572e-005	1.015673e-001	1.478136e-004
1.096914285714286e-005	1.028972e-001	1.478464e-004
1.111100000000000e-005	1.042270e-001	1.478814e-004
1.111182500000000e-005	1.042347e-001	1.478816e-004
1.111190000000000e-005	1.042354e-001	1.478816e-004
1.111200000000000e-005	1.042363e-001	1.478817e-004
1.111200125000000e-005	1.042364e-001	1.478817e-004
1.111200156250000e-005	1.042364e-001	1.478817e-004
1.111200218750000e-005	1.042364e-001	1.478817e-004
1.111200343750000e-005	1.042364e-001	1.478817e-004
1.111200593750000e-005	1.042364e-001	1.478817e-004
1.111201093750000e-005	1.042365e-001	1.478817e-004
1.111202093750000e-005	1.042365e-001	1.478817e-004
1.111208093750000e-005	1.042371e-001	1.478817e-004
1.125478366071428e-005	1.055746e-001	1.479196e-004
1.139748638392857e-005	1.069119e-001	1.479610e-004
1.154018910714286e-005	1.082490e-001	1.480061e-004
1.168289183035714e-005	1.095859e-001	1.480547e-004
1.182559455357143e-005	1.109226e-001	1.481069e-004
1.196829727678571e-005	1.122591e-001	1.481627e-004
1.211100000000000e-005	1.135955e-001	1.482221e-004
1.211200000000000e-005	1.136048e-001	1.482226e-004
1.224657714285687e-005	1.148648e-001	1.482836e-004
1.238115428571373e-005	1.161246e-001	1.483490e-004
1.251573142857060e-005	1.173843e-001	1.484187e-004
1.265030857142747e-005	1.186437e-001	1.484929e-004
1.278488571428434e-005	1.199030e-001	1.485714e-004
1.291946285714121e-005	1.211622e-001	1.486543e-004
1.305403999999807e-005	1.224211e-001	1.487416e-004
1.306427999999805e-005	1.225169e-001	1.487486e-004
1.306683999999805e-005	1.225408e-001	1.487503e-004
1.307195999999804e-005	1.225887e-001	1.487538e-004
1.307323999999804e-005	1.226007e-001	1.487547e-004
1.307579999999803e-005	1.226246e-001	1.487565e-004
1.315259999999787e-005	1.233429e-001	1.488103e-004
1.323451999999770e-005	1.241090e-001	1.488703e-004
1.339835999999737e-005	1.256410e-001	1.489991e-004
1.372603999999670e-005	1.287037e-001	1.492952e-004
1.438139999999536e-005	1.348249e-001	1.500466e-004
1.538139999999536e-005	1.441561e-001	1.516000e-004
1.638139999999536e-005	1.534755e-001	1.537722e-004
1.738139999999536e-005	1.627813e-001	1.567936e-004
1.838139999999537e-005	1.720726e-001	1.608829e-004
1.938139999999537e-005	1.813486e-001	1.662809e-004
2.038139999999537e-005	1.906092e-001	1.731653e-004
2.122000000000000e-005	1.983652e-001	1.799630e-004
2.122100000000000e-005	1.983745e-001	1.799720e-004
2.122300000000000e-005	1.983930e-001	1.799907e-004
2.122699999999999e-005	1.984299e-001	1.800283e-004
2.123499999999998e-005	1.985038e-001	1.801035e-004
2.125099999999996e-005	1.986516e-001	1.802543e-004
2.128299999999993e-005	1.989472e-001	1.805581e-004
2.134699999999985e-005	1.995382e-001	1.811736e-004
2.147157142857130e-005	2.006885e-001	1.823875e-004
2.159614285714275e-005	2.018385e-001	1.836356e-004
2.172071428571420e-005	2.029883e-001	1.849180e-004
2.184528571428565e-005	2.041377e-001	1.862346e-004
2.196985714285710e-005	2.052869e-001	1.875855e-004
2.209442857142855e-005	2.064358e-001	1.889706e-004
2.221900000000000e-005	2.075844e-001	1.903899e-004
2.222000000000000e-005	2.075936e-001	1.904015e-004
2.222010000000000e-005	2.075945e-001	1.904026e-004
2.222030000000000e-005	2.075964e-001	1.904049e-004
2.222060000000000e-005	2.075991e-001	1.904084e-004
2.222100000000000e-005	2.076028e-001	1.904130e-004
2.222172571428572e-005	2.076095e-001	1.904214e-004
2.222245142857143e-005	2.076162e-001	1.904298e-004
2.222317714285715e-005	2.076229e-001	1.904382e-004
2.222390285714286e-005	2.076296e-001	1.904466e-004
2.222462857142858e-005	2.076363e-001	1.904550e-004
2.222535428571429e-005	2.076430e-001	1.904634e-004
2.222608000000001e-005	2.076496e-001	1.904718e-004
2.223120000000002e-005	2.076969e-001	1.905310e-004
2.224144000000004e-005	2.077913e-001	1.906497e-004
2.226192000000009e-005	2.079801e-001	1.908881e-004
2.230288000000018e-005	2.083576e-001	1.913668e-004
2.231312000000020e-005	2.084520e-001	1.914871e-004
2.233872000000026e-005	2.086880e-001	1.917889e-004
2.234896000000028e-005	2.087824e-001	1.919103e-004
2.236944000000032e-005	2.089711e-001	1.921537e-004
2.241040000000041e-005	2.093486e-001	1.926444e-004
2.249232000000059e-005	2.101034e-001	1.936406e-004
2.265616000000095e-005	2.116127e-001	1.956933e-004
2.298384000000167e-005	2.146292e-001	2.000465e-004
2.363920000000311e-005	2.206554e-001	2.096512e-004
2.463920000000311e-005	2.298359e-001	2.262823e-004
2.563920000000311e-005	2.389976e-001	2.454179e-004
2.663920000000311e-005	2.481381e-001	2.673558e-004
2.763920000000311e-005	2.572565e-001	2.920982e-004
2.863920000000311e-005	2.663521e-001	3.195599e-004
2.963920000000311e-005	2.754241e-001	3.495614e-004
3.063920000000311e-005	2.844715e-001	3.818264e-004
3.163920000000310e-005	2.934957e-001	4.158869e-004
3.233200000000001e-005	2.997357e-001	4.402670e-004
3.233800000000002e-005	2.997897e-001	4.404832e-004
3.247985714285717e-005	3.010649e-001	4.456104e-004
3.262171428571430e-005	3.023395e-001	4.507536e-004
3.276357142857144e-005	3.036136e-001	4.559130e-004
3.290542857142858e-005	3.048872e-001	4.610885e-004
3.304728571428572e-005	3.061602e-001	4.662800e-004
3.318914285714286e-005	3.074326e-001	4.714877e-004
3.333100000000000e-005	3.087046e-001	4.767114e-004
3.333177500000000e-005	3.087115e-001	4.767400e-004
3.333182500000000e-005	3.087120e-001	4.767418e-004
3.333190000000001e-005	3.087126e-001	4.767446e-004
3.333200000000000e-005	3.087135e-001	4.767483e-004
3.333200125000000e-005	3.087136e-001	4.767483e-004
3.333200156250000e-005	3.087136e-001	4.767483e-004
3.333200218750000e-005	3.087136e-001	4.767483e-004
3.333200343750000e-005	3.087136e-001	4.767484e-004
3.333200593750000e-005	3.087136e-001	4.767485e-004
3.333201093750000e-005	3.087136e-001	4.767487e-004
3.333202093750000e-005	3.087137e-001	4.767490e-004
3.333204093750000e-005	3.087139e-001	4.767498e-004
3.333216093750000e-005	3.087150e-001	4.767542e-004
3.347485223214286e-005	3.099938e-001	4.820230e-004
3.361754352678571e-005	3.112721e-001	4.872957e-004
3.376023482142857e-005	3.125498e-001	4.925722e-004
3.390292611607143e-005	3.138269e-001	4.978525e-004
3.404561741071429e-005	3.151035e-001	5.031367e-004
3.418830870535714e-005	3.163795e-001	5.084247e-004
3.433100000000000e-005	3.176550e-001	5.137165e-004
3.433200000000000e-005	3.176639e-001	5.137536e-004
3.433212000000000e-005	3.176650e-001	5.137580e-004
3.433324000000000e-005	3.176750e-001	5.137995e-004
3.446910285714316e-005	3.188887e-001	5.188364e-004
3.460496571428631e-005	3.201020e-001	5.238663e-004
3.474082857142947e-005	3.213147e-001	5.288892e-004
3.487669142857262e-005	3.225270e-001	5.339051e-004
3.501255428571578e-005	3.237388e-001	5.389140e-004
3.514841714285893e-005	3.249501e-001	5.439160e-004
3.528428000000209e-005	3.261610e-001	5.489109e-004
3.528684000000209e-005	3.261838e-001	5.490048e-004
3.528748000000210e-005	3.261895e-001	5.490282e-004
3.528876000000210e-005	3.262009e-001	5.490752e-004
3.529132000000210e-005	3.262237e-001	5.491691e-004
3.529644000000211e-005	3.262693e-001	5.493569e-004
3.530668000000214e-005	3.263605e-001	5.497324e-004
3.532716000000218e-005	3.265430e-001	5.504831e-004
3.536812000000227e-005	3.269078e-001	5.519833e-004
3.545004000000245e-005	3.276373e-001	5.549788e-004
3.561388000000281e-005	3.290955e-001	5.609471e-004
3.594156000000353e-005	3.320089e-001	5.727742e-004
3.659692000000496e-005	3.378253e-001	5.959437e-004
3.759692000000496e-005	3.466779e-001	6.300175e-004
3.859692000000496e-005	3.555022e-001	6.621622e-004
3.959692000000496e-005	3.642950e-001	6.917912e-004
4.059692000000495e-005	3.730554e-001	7.185325e-004
4.159692000000495e-005	3.817827e-001	7.421375e-004
4.259692000000495e-005	3.904774e-001	7.626217e-004
4.344000000000000e-005	3.977871e-001	7.779340e-004
4.344100000000001e-005	3.977958e-001	7.779506e-004
4.344300000000001e-005	3.978131e-001	7.779826e-004
4.344700000000002e-005	3.978477e-001	7.780466e-004
4.345500000000004e-005	3.979168e-001	7.781742e-004
4.347100000000007e-005	3.980552e-001	7.784287e-004
4.350300000000014e-005	3.983318e-001	7.789349e-004
4.356700000000028e-005	3.988849e-001	7.799352e-004
4.369500000000056e-005	3.999906e-001	7.818890e-004
4.395100000000113e-005	4.022010e-001	7.857091e-004
4.395200000000113e-005	4.022096e-001	7.857237e-004
4.395400000000113e-005	4.022269e-001	7.857526e-004
4.395800000000114e-005	4.022614e-001	7.858103e-004
4.396600000000116e-005	4.023305e-001	7.859254e-004
4.398200000000119e-005	4.024685e-001	7.861551e-004
4.401400000000126e-005	4.027445e-001	7.866116e-004
4.407800000000140e-005	4.032965e-001	7.875134e-004
4.420600000000168e-005	4.044002e-001	7.892961e-004
4.420700000000169e-005	4.044088e-001	7.893099e-004
4.420900000000169e-005	4.044260e-001	7.893373e-004
4.421300000000170e-005	4.044605e-001	7.893920e-004
4.422100000000172e-005	4.045295e-001	7.895012e-004
4.423700000000175e-005	4.046673e-001	7.897190e-004
4.426900000000182e-005	4.049431e-001	7.901518e-004
4.433300000000196e-005	4.054946e-001	7.910123e-004
4.433400000000197e-005	4.055032e-001	7.910257e-004
4.433600000000197e-005	4.055204e-001	7.910524e-004
4.434000000000198e-005	4.055549e-001	7.911056e-004
4.434800000000200e-005	4.056238e-001	7.912120e-004
4.436400000000203e-005	4.057616e-001	7.914240e-004
4.439600000000210e-005	4.060372e-001	7.918467e-004
4.439700000000210e-005	4.060459e-001	7.918599e-004
4.439900000000211e-005	4.060631e-001	7.918862e-004
4.440300000000212e-005	4.060975e-001	7.919387e-004
4.441100000000213e-005	4.061664e-001	7.920437e-004
4.442399999999997e-005	4.062784e-001	7.922139e-004
4.442499999999997e-005	4.062870e-001	7.922270e-004
4.442699999999997e-005	4.063042e-001	7.922532e-004
4.443099999999998e-005	4.063387e-001	7.923055e-004
4.443199999999998e-005	4.063473e-001	7.923185e-004
4.443399999999999e-005	4.063645e-001	7.923446e-004
4.443599999999999e-005	4.063817e-001	7.923707e-004
4.443700000000000e-005	4.063903e-001	7.923837e-004
4.443800000000000e-005	4.063989e-001	7.923968e-004
4.443900000000000e-005	4.064075e-001	7.924098e-004
4.444000000000000e-005	4.064161e-001	7.924229e-004
4.444010000000000e-005	4.064170e-001	7.924241e-004
4.444030000000000e-005	4.064187e-001	7.924268e-004
4.444060000000000e-005	4.064213e-001	7.924307e-004
4.444100000000000e-005	4.064248e-001	7.924358e-004
4.444128000000000e-005	4.064272e-001	7.924395e-004
4.444352000000001e-005	4.064465e-001	7.924687e-004
4.444608000000001e-005	4.064685e-001	7.925020e-004
4.445120000000003e-005	4.065126e-001	7.925685e-004
4.446144000000005e-005	4.066008e-001	7.927014e-004
4.448192000000010e-005	4.067771e-001	7.929661e-004
4.453312000000021e-005	4.072179e-001	7.936241e-004
4.456896000000029e-005	4.075263e-001	7.940801e-004
4.458944000000033e-005	4.077026e-001	7.943387e-004
4.463040000000042e-005	4.080550e-001	7.948517e-004
4.471232000000060e-005	4.087597e-001	7.958609e-004
4.487616000000096e-005	4.101681e-001	7.978139e-004
4.520384000000168e-005	4.129811e-001	8.014751e-004
4.585920000000311e-005	4.185942e-001	8.080447e-004
4.685920000000311e-005	4.271312e-001	8.167701e-004
4.785920000000311e-005	4.356335e-001	8.244277e-004
4.885920000000311e-005	4.440970e-001	8.316829e-004
4.985920000000310e-005	4.525211e-001	8.395509e-004
5.085920000000310e-005	4.609050e-001	8.492429e-004
5.185920000000310e-005	4.692480e-001	8.622359e-004
5.285920000000309e-005	4.775493e-001	8.803825e-004
5.385920000000309e-005	4.858115e-001	9.051635e-004
5.455100000000001e-005	4.915074e-001	9.264565e-004
5.455200000000001e-005	4.915156e-001	9.264917e-004
5.455400000000001e-005	4.915320e-001	9.265662e-004
5.455800000000002e-005	4.915648e-001	9.267153e-004
5.456600000000004e-005	4.916305e-001	9.270144e-004
5.461400000000015e-005	4.920243e-001	9.288306e-004
5.480600000000057e-005	4.935985e-001	9.364862e-004
5.506200000000113e-005	4.956957e-001	9.472398e-004
5.506500000000113e-005	4.957203e-001	9.473718e-004
5.506900000000114e-005	4.957530e-001	9.475494e-004
5.510442857142979e-005	4.960429e-001	9.491436e-004
5.513985714285844e-005	4.963328e-001	9.507537e-004
5.517528571428709e-005	4.966226e-001	9.523797e-004
5.521071428571574e-005	4.969124e-001	9.540215e-004
5.524614285714439e-005	4.972021e-001	9.556791e-004
5.528157142857304e-005	4.974918e-001	9.573527e-004
5.531700000000169e-005	4.977815e-001	9.590421e-004
5.532000000000169e-005	4.978060e-001	9.591866e-004
5.555100000000000e-005	4.996930e-001	9.708034e-004
5.555111071428572e-005	4.996939e-001	9.708092e-004
5.555122142857143e-005	4.996948e-001	9.708150e-004
5.555133214285715e-005	4.996957e-001	9.708208e-004
5.555144285714286e-005	4.996966e-001	9.708266e-004
5.555155357142858e-005	4.996975e-001	9.708324e-004
5.555166428571429e-005	4.996984e-001	9.708382e-004
5.555177500000000e-005	4.996993e-001	9.708439e-004
5.555182500000000e-005	4.996997e-001	9.708466e-004
5.555190000000001e-005	4.997003e-001	9.708505e-004
5.555200000000000e-005	4.997011e-001	9.708557e-004
5.555200125000000e-005	4.997011e-001	9.708558e-004
5.555200156250000e-005	4.997011e-001	9.708558e-004
5.555200218750000e-005	4.997012e-001	9.708558e-004
5.555200343750000e-005	4.997012e-001	9.708559e-004
5.555200593750000e-005	4.997012e-001	9.708561e-004
5.555201093750000e-005	4.997012e-001	9.708563e-004
5.555202093750000e-005	4.997013e-001	9.708568e-004
5.555204093750000e-005	4.997015e-001	9.708579e-004
5.555208093750000e-005	4.997018e-001	9.708600e-004
5.555232093750000e-005	4.997038e-001	9.708725e-004
5.557568093750005e-005	4.998944e-001	9.720998e-004
5.559904093750010e-005	5.000851e-001	9.733396e-004
5.562240093750015e-005	5.002757e-001	9.745918e-004
5.564576093750021e-005	5.004663e-001	9.758564e-004
5.566912093750025e-005	5.006568e-001	9.771335e-004
5.569248093750031e-005	5.008474e-001	9.784230e-004
5.571584093750036e-005	5.010379e-001	9.797249e-004
5.587968093750072e-005	5.023732e-001	9.892337e-004
5.597558366071491e-005	5.031547e-001	9.948144e-004
5.607148638392908e-005	5.039358e-001	1.000611e-003
5.616738910714327e-005	5.047164e-001	1.006624e-003
5.626329183035745e-005	5.054965e-001	1.012853e-003
5.635919455357164e-005	5.062762e-001	1.019298e-003
5.645509727678582e-005	5.070554e-001	1.025960e-003
5.655100000000000e-005	5.078342e-001	1.032837e-003
5.655130000000000e-005	5.078366e-001	1.032859e-003
5.655200000000000e-005	5.078423e-001	1.032910e-003
5.655228000000000e-005	5.078446e-001	1.032930e-003
5.668828000000029e-005	5.089482e-001	1.043124e-003
5.682428000000059e-005	5.100509e-001	1.053793e-003
5.696028000000089e-005	5.111529e-001	1.064936e-003
5.709628000000120e-005	5.122541e-001	1.076554e-003
5.723228000000149e-005	5.133546e-001	1.088646e-003
5.736828000000179e-005	5.144542e-001	1.101213e-003
5.750428000000209e-005	5.155531e-001	1.114255e-003
5.750684000000209e-005	5.155737e-001	1.114508e-003
5.750748000000210e-005	5.155789e-001	1.114572e-003
5.750876000000210e-005	5.155893e-001	1.114698e-003
5.751132000000210e-005	5.156099e-001	1.114952e-003
5.751644000000211e-005	5.156513e-001	1.115461e-003
5.752668000000214e-005	5.157340e-001	1.116480e-003
5.754716000000218e-005	5.158993e-001	1.118532e-003
5.758812000000227e-005	5.162300e-001	1.122686e-003
5.767004000000245e-005	5.168909e-001	1.131199e-003
5.783388000000281e-005	5.182117e-001	1.149083e-003
5.816156000000353e-005	5.208485e-001	1.188596e-003
5.881692000000496e-005	5.261059e-001	1.282591e-003
5.981692000000496e-005	5.340930e-001	1.463125e-003
6.081692000000496e-005	5.420366e-001	1.698416e-003
6.181692000000496e-005	5.499321e-001	2.006902e-003
6.281692000000496e-005	5.577787e-001	2.405512e-003
6.381692000000496e-005	5.655758e-001	2.912985e-003
6.481692000000495e-005	5.733247e-001	3.543208e-003
6.566000000000001e-005	5.798272e-001	4.159281e-003
6.566100000000001e-005	5.798349e-001	4.160082e-003
6.566300000000001e-005	5.798503e-001	4.161752e-003
6.566700000000002e-005	5.798810e-001	4.165095e-003
6.567500000000004e-005	5.799425e-001	4.171792e-003
6.569100000000007e-005	5.800653e-001	4.185225e-003
6.572300000000014e-005	5.803109e-001	4.212255e-003
6.578700000000028e-005	5.808019e-001	4.266968e-003
6.591500000000056e-005	5.817832e-001	4.379049e-003
6.617100000000113e-005	5.837442e-001	4.608217e-003
6.617200000000113e-005	5.837519e-001	4.609128e-003
6.617400000000113e-005	5.837672e-001	4.610976e-003
6.617800000000114e-005	5.837978e-001	4.614674e-003
6.618600000000116e-005	5.838590e-001	4.622080e-003
6.620200000000119e-005	5.839815e-001	4.636935e-003
6.623400000000126e-005	5.842263e-001	4.666817e-003
6.629800000000140e-005	5.847155e-001	4.727278e-003
6.642600000000169e-005	5.856938e-001	4.849508e-003
6.642700000000169e-005	5.857015e-001	4.850472e-003
6.642900000000169e-005	5.857168e-001	4.852412e-003
6.643300000000170e-005	5.857473e-001	4.856294e-003
6.644100000000172e-005	5.858085e-001	4.864071e-003
6.645700000000175e-005	5.859306e-001	4.879668e-003
6.648900000000182e-005	5.861750e-001	4.911039e-003
6.655300000000196e-005	5.866635e-001	4.974118e-003
6.655400000000197e-005	5.866712e-001	4.975108e-003
6.655600000000197e-005	5.866864e-001	4.977095e-003
6.656000000000198e-005	5.867170e-001	4.981072e-003
6.656800000000200e-005	5.867780e-001	4.989036e-003
6.658400000000203e-005	5.869001e-001	5.005011e-003
6.661600000000210e-005	5.871443e-001	5.037045e-003
6.661700000000210e-005	5.871519e-001	5.038049e-003
6.661900000000211e-005	5.871672e-001	5.040059e-003
6.662300000000212e-005	5.871977e-001	5.044083e-003
6.663100000000213e-005	5.872587e-001	5.052141e-003
6.664399999999997e-005	5.873579e-001	5.065252e-003
6.664499999999997e-005	5.873655e-001	5.066261e-003
6.664699999999997e-005	5.873808e-001	5.068282e-003
6.665099999999998e-005	5.874113e-001	5.072325e-003
6.665199999999999e-005	5.874189e-001	5.073337e-003
6.665399999999999e-005	5.874342e-001	5.075361e-003
6.665599999999999e-005	5.874494e-001	5.077385e-003
6.665700000000000e-005	5.874571e-001	5.078397e-003
6.665800000000000e-005	5.874647e-001	5.079410e-003
