time	V(faa_in)	V(output)
0.000000000000000e+000	1.097053e-015	1.474701e-004
9.999999960041972e-012	4.438086e-011	1.474701e-004
1.999999992008394e-011	1.183248e-010	1.474701e-004
3.999999984016789e-011	3.902578e-010	1.474701e-004
7.999999968033578e-011	1.452747e-009	1.474701e-004
1.599999993606716e-010	5.689596e-009	1.474701e-004
3.199999987213431e-010	2.253194e-008	1.474701e-004
6.399999974426862e-010	8.158641e-008	1.474701e-004
1.000000000000000e-009	1.738762e-007	1.474701e-004
1.653142861782556e-009	5.026070e-007	1.474701e-004
2.306285723565111e-009	9.769017e-007	1.474701e-004
2.959428585347666e-009	1.596760e-006	1.474701e-004
3.612571447130222e-009	2.362183e-006	1.474701e-004
4.265714308912778e-009	3.273170e-006	1.474701e-004
4.918857170695333e-009	4.329720e-006	1.474701e-004
5.572000032477887e-009	5.531835e-006	1.474701e-004
1.018000006521150e-008	1.672968e-005	1.474701e-004
1.939600013067874e-008	4.967615e-005	1.474701e-004
3.782800026161321e-008	1.360030e-004	1.474701e-004
7.469200052348216e-008	3.326825e-004	1.474701e-004
1.023400007198839e-007	4.885655e-004	1.474701e-004
1.392040009817528e-007	6.971701e-004	1.474701e-004
1.484200010472200e-007	7.492930e-004	1.474701e-004
1.668520011781545e-007	8.535199e-004	1.474701e-004
2.037160014400235e-007	1.061977e-003	1.474701e-004
2.774440019637613e-007	1.478894e-003	1.474701e-004
4.249000030112371e-007	2.312728e-003	1.474701e-004
7.198120051061886e-007	3.980385e-003	1.474701e-004
1.309636009296092e-006	7.315641e-003	1.474701e-004
2.309636009296092e-006	1.297009e-002	1.474701e-004
3.309636009296092e-006	1.862414e-002	1.474703e-004
4.309636009296091e-006	2.427760e-002	1.474710e-004
5.309636009296091e-006	2.993027e-002	1.474734e-004
6.309636009296091e-006	3.558200e-002	1.474800e-004
7.309636009296091e-006	4.123258e-002	1.474961e-004
8.309636009296091e-006	4.688185e-002	1.475319e-004
9.309636009296092e-006	5.252970e-002	1.476006e-004
1.011200000000000e-005	5.706043e-002	1.476833e-004
1.011800000000000e-005	5.709431e-002	1.476842e-004
1.025985714285715e-005	5.789515e-002	1.477055e-004
1.040171428571429e-005	5.869597e-002	1.477291e-004
1.054357142857143e-005	5.949674e-002	1.477550e-004
1.068542857142857e-005	6.029747e-002	1.477832e-004
1.082728571428572e-005	6.109817e-002	1.478136e-004
1.096914285714286e-005	6.189883e-002	1.478464e-004
1.111100000000000e-005	6.269944e-002	1.478814e-004
1.111182500000000e-005	6.270410e-002	1.478816e-004
1.111190000000000e-005	6.270453e-002	1.478816e-004
1.111200000000000e-005	6.270508e-002	1.478817e-004
1.111200125000000e-005	6.270509e-002	1.478817e-004
1.111200218750000e-005	6.270510e-002	1.478817e-004
1.111200593750000e-005	6.270512e-002	1.478817e-004
1.111201093750000e-005	6.270515e-002	1.478817e-004
1.111204093750000e-005	6.270532e-002	1.478817e-004
1.125474937500000e-005	6.351070e-002	1.479196e-004
1.139745781250000e-005	6.431604e-002	1.479610e-004
1.154016625000000e-005	6.512133e-002	1.480061e-004
1.168287468750000e-005	6.592659e-002	1.480547e-004
1.182558312500000e-005	6.673180e-002	1.481069e-004
1.196829156250000e-005	6.753697e-002	1.481627e-004
1.211100000000000e-005	6.834210e-002	1.482221e-004
1.211200000000000e-005	6.834774e-002	1.482226e-004
1.224657714285687e-005	6.910694e-002	1.482836e-004
1.238115428571373e-005	6.986610e-002	1.483490e-004
1.251573142857060e-005	7.062522e-002	1.484187e-004
1.265030857142747e-005	7.138431e-002	1.484929e-004
1.278488571428434e-005	7.214336e-002	1.485714e-004
1.291946285714121e-005	7.290237e-002	1.486543e-004
1.305403999999807e-005	7.366134e-002	1.487416e-004
1.306427999999805e-005	7.371909e-002	1.487486e-004
1.306683999999805e-005	7.373352e-002	1.487503e-004
1.307195999999804e-005	7.376240e-002	1.487538e-004
1.307323999999804e-005	7.376962e-002	1.487547e-004
1.307579999999803e-005	7.378405e-002	1.487565e-004
1.315259999999787e-005	7.421716e-002	1.488103e-004
1.323451999999770e-005	7.467911e-002	1.488703e-004
1.339835999999737e-005	7.560295e-002	1.489991e-004
1.372603999999670e-005	7.745037e-002	1.492952e-004
1.438139999999536e-005	8.114434e-002	1.500466e-004
1.538139999999536e-005	8.677892e-002	1.516000e-004
1.638139999999536e-005	9.241093e-002	1.537722e-004
1.738139999999536e-005	9.803999e-002	1.567936e-004
1.838139999999537e-005	1.036659e-001	1.608829e-004
1.938139999999537e-005	1.092885e-001	1.662809e-004
2.038139999999537e-005	1.149078e-001	1.731663e-004
2.122200000000000e-005	1.196292e-001	1.799818e-004
2.122300000000000e-005	1.196348e-001	1.799908e-004
2.122499999999999e-005	1.196460e-001	1.800096e-004
2.122899999999999e-005	1.196685e-001	1.800471e-004
2.123699999999998e-005	1.197134e-001	1.801223e-004
2.125299999999996e-005	1.198032e-001	1.802733e-004
2.128499999999992e-005	1.199829e-001	1.805772e-004
2.134899999999985e-005	1.203422e-001	1.811929e-004
2.147699999999969e-005	1.210607e-001	1.824569e-004
2.158342857142831e-005	1.216580e-001	1.835159e-004
2.168985714285692e-005	1.222554e-001	1.846013e-004
2.179628571428554e-005	1.228527e-001	1.857132e-004
2.190271428571415e-005	1.234500e-001	1.868514e-004
2.200914285714277e-005	1.240472e-001	1.880161e-004
2.211557142857138e-005	1.246443e-001	1.892071e-004
2.222200000000000e-005	1.252414e-001	1.904246e-004
2.222210000000000e-005	1.252420e-001	1.904258e-004
2.222230000000000e-005	1.252431e-001	1.904281e-004
2.222260000000000e-005	1.252448e-001	1.904315e-004
2.222300000000000e-005	1.252471e-001	1.904362e-004
2.222372571428571e-005	1.252511e-001	1.904445e-004
2.222445142857143e-005	1.252552e-001	1.904529e-004
2.222517714285714e-005	1.252593e-001	1.904613e-004
2.222590285714286e-005	1.252633e-001	1.904697e-004
2.222662857142858e-005	1.252674e-001	1.904781e-004
2.222735428571429e-005	1.252715e-001	1.904865e-004
2.222808000000001e-005	1.252756e-001	1.904949e-004
2.223320000000002e-005	1.253043e-001	1.905542e-004
2.224344000000004e-005	1.253617e-001	1.906729e-004
2.226392000000009e-005	1.254766e-001	1.909114e-004
2.230488000000018e-005	1.257064e-001	1.913903e-004
2.233560000000024e-005	1.258788e-001	1.917521e-004
2.235096000000028e-005	1.259649e-001	1.919339e-004
2.237144000000032e-005	1.260798e-001	1.921775e-004
2.241240000000041e-005	1.263096e-001	1.926684e-004
2.249432000000059e-005	1.267691e-001	1.936649e-004
2.265816000000095e-005	1.276880e-001	1.957184e-004
2.298584000000167e-005	1.295254e-001	2.000732e-004
2.364120000000310e-005	1.331987e-001	2.096812e-004
2.464120000000310e-005	1.388006e-001	2.263173e-004
2.564120000000311e-005	1.443984e-001	2.454578e-004
2.664120000000311e-005	1.499915e-001	2.674001e-004
2.764120000000311e-005	1.555799e-001	2.921455e-004
2.864120000000311e-005	1.611633e-001	3.196075e-004
2.964120000000311e-005	1.667415e-001	3.496039e-004
3.064120000000310e-005	1.723144e-001	3.818546e-004
3.164120000000310e-005	1.778823e-001	4.158872e-004
3.233400000000001e-005	1.817370e-001	4.402388e-004
3.242500000000021e-005	1.822430e-001	4.435180e-004
3.251600000000041e-005	1.827490e-001	4.468043e-004
3.260700000000060e-005	1.832549e-001	4.500978e-004
3.269800000000080e-005	1.837607e-001	4.533983e-004
3.278900000000100e-005	1.842665e-001	4.567060e-004
3.288000000000120e-005	1.847723e-001	4.600208e-004
3.297100000000140e-005	1.852780e-001	4.633428e-004
3.333300000000000e-005	1.872892e-001	4.766075e-004
3.333382500000000e-005	1.872938e-001	4.766378e-004
3.333390000000000e-005	1.872942e-001	4.766406e-004
3.333400000000000e-005	1.872947e-001	4.766443e-004
3.333400156250000e-005	1.872948e-001	4.766443e-004
3.333400343750000e-005	1.872948e-001	4.766444e-004
3.333400593749999e-005	1.872948e-001	4.766445e-004
3.333402093749999e-005	1.872949e-001	4.766450e-004
3.333438379464285e-005	1.872969e-001	4.766584e-004
3.333474665178571e-005	1.872989e-001	4.766717e-004
3.333510950892857e-005	1.873009e-001	4.766850e-004
3.333547236607143e-005	1.873029e-001	4.766984e-004
3.333583522321429e-005	1.873049e-001	4.767117e-004
3.333619808035714e-005	1.873070e-001	4.767250e-004
3.333656093750000e-005	1.873090e-001	4.767384e-004
3.347890937500000e-005	1.880996e-001	4.819804e-004
3.362125781250000e-005	1.888901e-001	4.872249e-004
3.376360625000000e-005	1.896805e-001	4.924720e-004
3.390595468750000e-005	1.904708e-001	4.977216e-004
3.404830312500000e-005	1.912610e-001	5.029738e-004
3.419065156250000e-005	1.920510e-001	5.082285e-004
3.433300000000000e-005	1.928409e-001	5.134857e-004
3.433400000000000e-005	1.928464e-001	5.135227e-004
3.447004000000030e-005	1.936012e-001	5.185435e-004
3.460608000000060e-005	1.943559e-001	5.235557e-004
3.474212000000090e-005	1.951104e-001	5.285594e-004
3.487816000000120e-005	1.958648e-001	5.335545e-004
3.501420000000150e-005	1.966192e-001	5.385410e-004
3.515024000000179e-005	1.973734e-001	5.435190e-004
3.528628000000209e-005	1.981275e-001	5.484884e-004
3.528884000000210e-005	1.981417e-001	5.485817e-004
3.528948000000210e-005	1.981452e-001	5.486051e-004
3.529076000000210e-005	1.981523e-001	5.486517e-004
3.529332000000211e-005	1.981665e-001	5.487449e-004
3.529844000000212e-005	1.981949e-001	5.489315e-004
3.530868000000214e-005	1.982517e-001	5.493044e-004
3.532916000000219e-005	1.983652e-001	5.500500e-004
3.537012000000227e-005	1.985922e-001	5.515398e-004
3.545204000000246e-005	1.990462e-001	5.545137e-004
3.561588000000282e-005	1.999540e-001	5.604359e-004
3.594356000000353e-005	2.017689e-001	5.721577e-004
3.659892000000497e-005	2.053965e-001	5.950619e-004
3.759892000000497e-005	2.109268e-001	6.285924e-004
3.859892000000496e-005	2.164509e-001	6.599831e-004
3.959892000000496e-005	2.219682e-001	6.885689e-004
4.059892000000496e-005	2.274783e-001	7.139019e-004
4.159892000000495e-005	2.329811e-001	7.356482e-004
4.259892000000495e-005	2.384768e-001	7.537547e-004
4.344400000000000e-005	2.431166e-001	7.667306e-004
4.344500000000000e-005	2.431220e-001	7.667442e-004
4.344700000000001e-005	2.431330e-001	7.667697e-004
4.345100000000002e-005	2.431550e-001	7.668205e-004
4.345900000000003e-005	2.431988e-001	7.669220e-004
4.347500000000007e-005	2.432866e-001	7.671241e-004
4.350700000000014e-005	2.434621e-001	7.675245e-004
4.357100000000028e-005	2.438131e-001	7.683106e-004
4.369900000000056e-005	2.445150e-001	7.698243e-004
4.395500000000112e-005	2.459185e-001	7.727423e-004
4.395600000000112e-005	2.459239e-001	7.727533e-004
4.395800000000113e-005	2.459349e-001	7.727749e-004
4.396200000000114e-005	2.459568e-001	7.728179e-004
4.397000000000115e-005	2.460007e-001	7.729038e-004
4.398600000000119e-005	2.460884e-001	7.730748e-004
4.401800000000126e-005	2.462638e-001	7.734131e-004
4.408200000000140e-005	2.466145e-001	7.740755e-004
4.421000000000168e-005	2.473159e-001	7.753733e-004
4.421100000000168e-005	2.473214e-001	7.753833e-004
4.421300000000169e-005	2.473323e-001	7.754030e-004
4.421700000000169e-005	2.473542e-001	7.754422e-004
4.422500000000171e-005	2.473981e-001	7.755206e-004
4.424100000000175e-005	2.474857e-001	7.756763e-004
4.427300000000182e-005	2.476611e-001	7.759844e-004
4.433700000000196e-005	2.480117e-001	7.765939e-004
4.433800000000196e-005	2.480172e-001	7.766033e-004
4.434000000000196e-005	2.480281e-001	7.766220e-004
4.434400000000197e-005	2.480500e-001	7.766595e-004
4.435200000000199e-005	2.480938e-001	7.767340e-004
4.436800000000203e-005	2.481815e-001	7.768823e-004
4.440000000000210e-005	2.483568e-001	7.771773e-004
4.440100000000210e-005	2.483623e-001	7.771865e-004
4.440300000000210e-005	2.483732e-001	7.772048e-004
4.440700000000211e-005	2.483951e-001	7.772413e-004
4.441500000000213e-005	2.484390e-001	7.773141e-004
4.442799999999996e-005	2.485102e-001	7.774321e-004
4.442899999999996e-005	2.485156e-001	7.774411e-004
4.443099999999997e-005	2.485266e-001	7.774592e-004
4.443499999999998e-005	2.485485e-001	7.774953e-004
4.443599999999998e-005	2.485540e-001	7.775043e-004
4.443799999999998e-005	2.485649e-001	7.775223e-004
4.443999999999999e-005	2.485759e-001	7.775403e-004
4.444099999999999e-005	2.485814e-001	7.775493e-004
4.444199999999999e-005	2.485868e-001	7.775584e-004
4.444299999999999e-005	2.485923e-001	7.775673e-004
4.444400000000000e-005	2.485978e-001	7.775764e-004
4.444410000000000e-005	2.485983e-001	7.775772e-004
4.444430000000000e-005	2.485994e-001	7.775790e-004
4.444460000000000e-005	2.486011e-001	7.775817e-004
4.444500000000000e-005	2.486033e-001	7.775853e-004
4.444572571428572e-005	2.486072e-001	7.775918e-004
4.444645142857143e-005	2.486112e-001	7.775984e-004
4.444717714285715e-005	2.486152e-001	7.776049e-004
4.444790285714286e-005	2.486192e-001	7.776114e-004
4.444862857142858e-005	2.486231e-001	7.776179e-004
4.444935428571429e-005	2.486271e-001	7.776244e-004
4.445008000000001e-005	2.486311e-001	7.776309e-004
4.445520000000002e-005	2.486591e-001	7.776767e-004
4.446544000000005e-005	2.487152e-001	7.777680e-004
4.448592000000009e-005	2.488274e-001	7.779491e-004
4.453712000000020e-005	2.491078e-001	7.783972e-004
4.457296000000028e-005	2.493041e-001	7.787048e-004
4.459344000000033e-005	2.494162e-001	7.788780e-004
4.463440000000041e-005	2.496405e-001	7.792189e-004
4.471632000000060e-005	2.500890e-001	7.798782e-004
4.488016000000096e-005	2.509859e-001	7.811093e-004
4.520784000000167e-005	2.527788e-001	7.832338e-004
4.586320000000311e-005	2.563617e-001	7.863854e-004
4.686320000000311e-005	2.618227e-001	7.891126e-004
4.786320000000310e-005	2.672759e-001	7.897277e-004
4.886320000000310e-005	2.727207e-001	7.886778e-004
4.986320000000310e-005	2.781567e-001	7.868180e-004
5.086320000000310e-005	2.835838e-001	7.851502e-004
5.186320000000309e-005	2.890019e-001	7.848544e-004
5.286320000000309e-005	2.944107e-001	7.873445e-004
5.386320000000309e-005	2.998108e-001	7.937793e-004
5.455500000000000e-005	3.035422e-001	8.007915e-004
5.455800000000001e-005	3.035584e-001	8.008328e-004
5.456200000000002e-005	3.035799e-001	8.008898e-004
5.457000000000004e-005	3.036230e-001	8.010042e-004
5.464085714285733e-005	3.040047e-001	8.020635e-004
5.471171428571463e-005	3.043864e-001	8.031586e-004
5.478257142857193e-005	3.047680e-001	8.042897e-004
5.485342857142923e-005	3.051496e-001	8.054566e-004
5.492428571428652e-005	3.055312e-001	8.066594e-004
5.499514285714382e-005	3.059127e-001	8.078981e-004
5.506600000000112e-005	3.062942e-001	8.091728e-004
5.506900000000113e-005	3.063104e-001	8.092284e-004
5.508100000000116e-005	3.063749e-001	8.094545e-004
5.532200000000168e-005	3.076719e-001	8.142923e-004
5.532800000000170e-005	3.077042e-001	8.144205e-004
5.555500000000000e-005	3.089253e-001	8.195473e-004
5.555582500000000e-005	3.089298e-001	8.195670e-004
5.555590000000000e-005	3.089302e-001	8.195688e-004
5.555600000000000e-005	3.089307e-001	8.195712e-004
5.555600156250000e-005	3.089307e-001	8.195713e-004
5.555600218749999e-005	3.089307e-001	8.195713e-004
5.555600343749999e-005	3.089307e-001	8.195713e-004
5.555600593749999e-005	3.089307e-001	8.195713e-004
5.555601093749999e-005	3.089308e-001	8.195714e-004
5.565177522321449e-005	3.094457e-001	8.219571e-004
5.574753950892899e-005	3.099606e-001	8.244386e-004
5.584330379464348e-005	3.104754e-001	8.270160e-004
5.593906808035798e-005	3.109901e-001	8.296892e-004
5.603483236607247e-005	3.115047e-001	8.324583e-004
5.613059665178697e-005	3.120193e-001	8.353232e-004
5.622636093750147e-005	3.125338e-001	8.382840e-004
5.655500000000000e-005	3.142986e-001	8.496453e-004
5.655599999999999e-005	3.143039e-001	8.496823e-004
5.669204000000029e-005	3.150341e-001	8.549030e-004
5.682808000000059e-005	3.157641e-001	8.604267e-004
5.696412000000089e-005	3.164939e-001	8.662533e-004
5.710016000000119e-005	3.172235e-001	8.723829e-004
5.723620000000149e-005	3.179530e-001	8.788155e-004
5.737224000000178e-005	3.186823e-001	8.855511e-004
5.750828000000209e-005	3.194114e-001	8.925896e-004
5.751084000000209e-005	3.194251e-001	8.927271e-004
5.751148000000209e-005	3.194286e-001	8.927614e-004
5.751276000000209e-005	3.194354e-001	8.928302e-004
5.751532000000210e-005	3.194491e-001	8.929679e-004
5.752044000000211e-005	3.194766e-001	8.932438e-004
5.753068000000213e-005	3.195314e-001	8.937976e-004
5.755116000000218e-005	3.196412e-001	8.949130e-004
5.759212000000227e-005	3.198606e-001	8.971757e-004
5.767404000000245e-005	3.202995e-001	9.018317e-004
5.783788000000281e-005	3.211769e-001	9.116880e-004
5.816556000000353e-005	3.229307e-001	9.337692e-004
5.882092000000496e-005	3.264347e-001	9.873582e-004
5.982092000000496e-005	3.317735e-001	1.092381e-003
6.082092000000495e-005	3.371027e-001	1.231515e-003
6.182092000000496e-005	3.424211e-001	1.415981e-003
6.282092000000496e-005	3.477284e-001	1.655948e-003
6.382092000000495e-005	3.530247e-001	1.962641e-003
6.482092000000495e-005	3.583102e-001	2.344343e-003
6.566600000000001e-005	3.627699e-001	2.718715e-003
6.566700000000001e-005	3.627752e-001	2.719201e-003
6.566900000000001e-005	3.627857e-001	2.720214e-003
6.567300000000002e-005	3.628068e-001	2.722242e-003
6.568100000000004e-005	3.628490e-001	2.726305e-003
6.569700000000007e-005	3.629333e-001	2.734453e-003
6.572900000000014e-005	3.631019e-001	2.750850e-003
6.579300000000028e-005	3.634391e-001	2.784040e-003
6.592100000000056e-005	3.641132e-001	2.852033e-003
6.617700000000113e-005	3.654612e-001	2.991056e-003
6.617800000000113e-005	3.654664e-001	2.991610e-003
6.618000000000113e-005	3.654770e-001	2.992730e-003
6.618400000000114e-005	3.654980e-001	2.994973e-003
6.619200000000116e-005	3.655401e-001	2.999466e-003
6.620800000000119e-005	3.656243e-001	3.008478e-003
6.624000000000126e-005	3.657928e-001	3.026607e-003
6.630400000000140e-005	3.661295e-001	3.063285e-003
6.643200000000168e-005	3.668030e-001	3.137435e-003
6.643300000000169e-005	3.668083e-001	3.138019e-003
6.643500000000169e-005	3.668188e-001	3.139196e-003
6.643900000000170e-005	3.668398e-001	3.141552e-003
6.644700000000172e-005	3.668819e-001	3.146269e-003
6.646300000000175e-005	3.669661e-001	3.155731e-003
6.649500000000182e-005	3.671344e-001	3.174762e-003
6.655900000000196e-005	3.674710e-001	3.213028e-003
6.656000000000197e-005	3.674763e-001	3.213628e-003
6.656200000000197e-005	3.674868e-001	3.214834e-003
6.656600000000198e-005	3.675078e-001	3.217246e-003
6.657400000000200e-005	3.675499e-001	3.222078e-003
6.659000000000203e-005	3.676341e-001	3.231768e-003
6.662200000000210e-005	3.678023e-001	3.251201e-003
6.662300000000210e-005	3.678076e-001	3.251810e-003
6.662500000000211e-005	3.678181e-001	3.253030e-003
6.662900000000212e-005	3.678391e-001	3.255471e-003
6.663700000000213e-005	3.678812e-001	3.260359e-003
6.664999999999997e-005	3.679495e-001	3.268312e-003
6.665099999999997e-005	3.679548e-001	3.268924e-003
6.665299999999997e-005	3.679653e-001	3.270150e-003
6.665699999999998e-005	3.679864e-001	3.272603e-003
6.665799999999998e-005	3.679916e-001	3.273217e-003
6.665999999999998e-005	3.680021e-001	3.274444e-003
6.666200000000002e-005	3.680127e-001	3.275672e-003
6.666300000000002e-005	3.680179e-001	3.276286e-003
6.666400000000000e-005	3.680232e-001	3.276901e-003
6.666500000000000e-005	3.680284e-001	3.277515e-003
6.666600000000000e-005	3.680337e-001	3.278130e-003
6.666610000000000e-005	3.680342e-001	3.278191e-003
6.666630000000000e-005	3.680353e-001	3.278314e-003
6.666660000000000e-005	3.680368e-001	3.278498e-003
6.666700000000000e-005	3.680390e-001	3.278744e-003
6.666772571428572e-005	3.680428e-001	3.279190e-003
6.666845142857144e-005	3.680466e-001	3.279636e-003
6.666917714285715e-005	3.680504e-001	3.280083e-003
6.666990285714287e-005	3.680542e-001	3.280529e-003
6.667062857142859e-005	3.680580e-001	3.280975e-003
6.667135428571430e-005	3.680618e-001	3.281422e-003
6.667208000000002e-005	3.680657e-001	3.281869e-003
6.667720000000003e-005	3.680926e-001	3.285021e-003
6.668744000000005e-005	3.681464e-001	3.291338e-003
6.670792000000010e-005	3.682541e-001	3.304016e-003
6.675912000000021e-005	3.685232e-001	3.335862e-003
6.679496000000030e-005	3.687117e-001	3.358349e-003
6.681544000000035e-005	3.688193e-001	3.371281e-003
6.685640000000043e-005	3.690346e-001	3.397328e-003
6.693832000000061e-005	3.694651e-001	3.450162e-003
6.710216000000097e-005	3.703257e-001	3.558827e-003
6.742984000000169e-005	3.720458e-001	3.788484e-003
6.808520000000313e-005	3.754818e-001	4.292567e-003
6.908520000000312e-005	3.807157e-001	5.160552e-003
