time	V(out)	V(n001)	V(n002)
0.000000000000000e+000	4.563358e-004	3.499800e-007	0.000000e+000
2.318443535513937e-013	4.563358e-004	3.499814e-007	1.217543e-005
4.636887071027874e-013	4.563358e-004	3.499865e-007	3.098702e-005
6.955330606541811e-013	4.563358e-004	3.499952e-007	5.643478e-005
9.273774142055749e-013	4.563358e-004	3.500075e-007	8.851869e-005
1.159221767756969e-012	4.563358e-004	3.500235e-007	1.272388e-004
1.391066121308362e-012	4.563358e-004	3.500431e-007	1.725950e-004
1.622910474859755e-012	4.563358e-004	3.500663e-007	2.245874e-004
3.599039898557259e-011	4.563358e-004	3.895139e-007	7.085888e-003
7.035788749628543e-011	4.563359e-004	5.183815e-007	1.391866e-002
1.047253760069983e-010	4.563360e-004	7.366692e-007	2.072290e-002
1.390928645177111e-010	4.563361e-004	1.044377e-006	2.749860e-002
1.734603530284240e-010	4.563362e-004	1.441505e-006	3.424578e-002
2.078278415391368e-010	4.563364e-004	1.928053e-006	4.096443e-002
2.421953300498496e-010	4.563366e-004	2.504020e-006	4.765454e-002
4.503779778667953e-010	4.563387e-004	7.894038e-006	8.757306e-002
8.667432735006869e-010	4.563467e-004	2.806901e-005	1.644104e-001
1.699473864768470e-009	4.563752e-004	9.855622e-005	3.084639e-001
2.891719208685827e-009	4.564410e-004	2.606417e-004	4.951878e-001
4.547885841778322e-009	4.565771e-004	5.941961e-004	7.199863e-001
6.781879912951253e-009	4.568294e-004	1.211597e-003	9.698166e-001
9.771732439891391e-009	4.572648e-004	2.275937e-003	1.228329e+000
1.370986019117041e-008	4.579638e-004	3.984472e-003	1.471226e+000
1.892659842537438e-008	4.590351e-004	6.603137e-003	1.679981e+000
2.522972910209168e-008	4.604644e-004	1.009846e-002	1.827022e+000
3.272380449784639e-008	4.622721e-004	1.452235e-002	1.916871e+000
4.187643881738855e-008	4.645554e-004	2.011518e-002	1.966567e+000
5.187643881738855e-008	4.670898e-004	2.632901e-002	1.988316e+000
7.044786738881714e-008	4.718354e-004	3.798170e-002	1.993322e+000
8.901929596024573e-008	4.765731e-004	4.963789e-002	1.997209e+000
1.075907245316743e-007	4.813030e-004	6.129758e-002	1.999978e+000
1.261621531031029e-007	4.860251e-004	7.296076e-002	2.001628e+000
1.447335816745315e-007	4.907395e-004	8.462744e-002	2.002159e+000
1.633050102459601e-007	4.954460e-004	9.629761e-002	2.001572e+000
1.818764388173886e-007	5.001448e-004	1.079713e-001	1.999867e+000
7.418764388173846e-007	6.363664e-004	4.607499e-001	1.999867e+000
1.301876438817381e-006	7.660780e-004	8.118776e-001	1.999867e+000
1.861876438817377e-006	8.892796e-004	1.161354e+000	1.999867e+000
2.421876438817373e-006	1.005971e-003	1.509180e+000	1.999867e+000
2.981876438817369e-006	1.116153e-003	1.855355e+000	1.999867e+000
3.541876438817365e-006	1.219824e-003	2.199879e+000	1.999867e+000
4.101876438817360e-006	1.316986e-003	2.542751e+000	1.999867e+000
4.720447867388782e-006	1.418788e-003	2.917985e+000	1.999867e+000
5.339019295960205e-006	1.515681e-003	3.287443e+000	1.999867e+000
5.957590724531629e-006	1.607663e-003	3.651124e+000	1.999867e+000
6.576162153103051e-006	1.694736e-003	4.009029e+000	1.999867e+000
7.194733581674473e-006	1.776899e-003	4.361157e+000	1.999867e+000
7.813305010245896e-006	1.854153e-003	4.707509e+000	1.999867e+000
8.431876438817318e-006	1.926496e-003	5.048084e+000	1.999867e+000
8.437728327840677e-006	1.960089e-003	5.051309e+000	1.999867e+000
8.440930450527763e-006	2.091732e-003	5.053184e+000	1.999867e+000
8.443540495695128e-006	2.431670e-003	5.054796e+000	1.999867e+000
8.446857383679987e-006	3.298754e-003	5.056834e+000	1.999867e+000
8.450861860852521e-006	5.133558e-003	5.059206e+000	1.999867e+000
8.458870815197589e-006	1.104780e-002	5.063788e+000	1.999867e+000
8.468870815197589e-006	2.197997e-002	5.069359e+000	1.999867e+000
8.478870815197589e-006	3.711185e-002	5.074838e+000	1.999867e+000
8.488870815197589e-006	5.663626e-002	5.080276e+000	1.999867e+000
8.498870815197589e-006	8.051603e-002	5.085697e+000	1.999867e+000
8.508870815197589e-006	1.087097e-001	5.091110e+000	1.999867e+000
8.518870815197589e-006	1.411731e-001	5.096519e+000	1.999867e+000
8.528870815197589e-006	1.778610e-001	5.101926e+000	1.999867e+000
8.538870815197588e-006	2.187269e-001	5.107329e+000	1.999867e+000
8.548870815197588e-006	2.637240e-001	5.112731e+000	1.999867e+000
8.558870815197588e-006	3.121171e-001	5.118093e+000	1.999867e+000
8.562287317085919e-006	3.294638e-001	5.119856e+000	1.999867e+000
8.563973615047497e-006	3.382406e-001	5.120675e+000	1.999867e+000
8.565552406564678e-006	3.465038e-001	5.121416e+000	1.999867e+000
8.567193598419891e-006	3.551056e-001	5.122185e+000	1.999867e+000
8.568927697718041e-006	3.641973e-001	5.123005e+000	1.999867e+000
8.570571180808403e-006	3.728108e-001	5.123795e+000	1.999867e+000
8.573019228889052e-006	3.856294e-001	5.124990e+000	1.999867e+000
8.575579806023626e-006	3.990172e-001	5.126265e+000	1.999867e+000
8.578948174819806e-006	4.165892e-001	5.127973e+000	1.999867e+000
8.583081479379126e-006	4.380860e-001	5.130105e+000	1.999867e+000
8.588279329755078e-006	4.650070e-001	5.132828e+000	1.999867e+000
8.594961000661838e-006	4.994220e-001	5.136370e+000	1.999867e+000
8.603499896941838e-006	5.430927e-001	5.140931e+000	1.999867e+000
8.613499896941838e-006	5.938103e-001	5.146297e+000	1.999867e+000
8.623499896941838e-006	6.440604e-001	5.151674e+000	1.999867e+000
8.633499896941838e-006	6.938261e-001	5.157055e+000	1.999867e+000
8.653499896941838e-006	7.919146e-001	5.167815e+000	1.999867e+000
8.673499896941838e-006	8.880117e-001	5.178568e+000	1.999867e+000
8.693499896941837e-006	9.823388e-001	5.189314e+000	1.999867e+000
8.713499896941837e-006	1.074896e+000	5.200051e+000	1.999867e+000
8.733499896941837e-006	1.165683e+000	5.210781e+000	1.999867e+000
8.753499896941837e-006	1.254700e+000	5.221502e+000	1.999867e+000
8.773499896941837e-006	1.341946e+000	5.232215e+000	1.999867e+000
8.793499896941837e-006	1.427423e+000	5.242920e+000	1.999867e+000
8.872071325513264e-006	1.743799e+000	5.284897e+000	1.999867e+000
8.950642754084692e-006	2.041282e+000	5.326743e+000	1.999867e+000
9.029214182656119e-006	2.319872e+000	5.368457e+000	1.999867e+000
9.107785611227549e-006	2.579568e+000	5.410040e+000	1.999867e+000
9.186357039798976e-006	2.820370e+000	5.451492e+000	1.999867e+000
9.264928468370404e-006	3.042279e+000	5.492812e+000	1.999867e+000
9.343499896941831e-006	3.245295e+000	5.534001e+000	1.999867e+000
9.409214182656116e-006	3.406275e+000	5.568346e+000	1.999867e+000
9.474928468370402e-006	3.559687e+000	5.602595e+000	1.999867e+000
9.540642754084686e-006	3.705530e+000	5.636747e+000	1.999867e+000
9.606357039798972e-006	3.843804e+000	5.670802e+000	1.999867e+000
9.672071325513256e-006	3.974510e+000	5.704762e+000	1.999867e+000
9.737785611227543e-006	4.097647e+000	5.738625e+000	1.999867e+000
9.803499896941827e-006	4.213216e+000	5.772391e+000	1.999867e+000
9.813499896941827e-006	4.230479e+000	5.777521e+000	1.999867e+000
9.912071325513254e-006	4.391172e+000	5.827966e+000	1.999867e+000
1.001064275408468e-005	4.542794e+000	5.878183e+000	1.999867e+000
1.010921418265611e-005	4.685346e+000	5.928171e+000	1.999867e+000
1.020778561122754e-005	4.818828e+000	5.977931e+000	1.999867e+000
1.030635703979897e-005	4.943239e+000	6.027463e+000	1.999867e+000
1.040492846837039e-005	5.058580e+000	6.076766e+000	1.999867e+000
1.050349989694182e-005	5.164850e+000	6.125841e+000	1.999867e+000
1.061635703979896e-005	5.279914e+000	6.181742e+000	1.999867e+000
1.072921418265610e-005	5.389553e+000	6.237324e+000	1.999867e+000
1.084207132551325e-005	5.493768e+000	6.292589e+000	1.999867e+000
1.095492846837039e-005	5.592559e+000	6.347536e+000	1.999867e+000
1.106778561122753e-005	5.685925e+000	6.402165e+000	1.999867e+000
1.118064275408467e-005	5.773868e+000	6.456476e+000	1.999867e+000
1.129349989694181e-005	5.856386e+000	6.510470e+000	1.999867e+000
1.143635703979896e-005	5.956406e+000	6.578351e+000	1.999867e+000
1.157921418265610e-005	6.052842e+000	6.645689e+000	1.999867e+000
1.172207132551324e-005	6.145694e+000	6.712484e+000	1.999867e+000
1.186492846837038e-005	6.234961e+000	6.778734e+000	1.999867e+000
1.200778561122752e-005	6.320644e+000	6.844442e+000	1.999867e+000
1.215064275408466e-005	6.402743e+000	6.909606e+000	1.999867e+000
1.229349989694180e-005	6.481257e+000	6.974226e+000	1.999867e+000
1.250207132551323e-005	6.592500e+000	7.067581e+000	1.999867e+000
1.271064275408466e-005	6.700830e+000	7.159683e+000	1.999867e+000
1.291921418265608e-005	6.806249e+000	7.250533e+000	1.999867e+000
1.312778561122751e-005	6.908756e+000	7.340130e+000	1.999867e+000
1.333635703979894e-005	7.008351e+000	7.428474e+000	1.999867e+000
1.354492846837036e-005	7.105035e+000	7.515566e+000	1.999867e+000
1.375349989694179e-005	7.198807e+000	7.601405e+000	1.999867e+000
1.416728576880725e-005	7.380170e+000	7.768005e+000	1.999867e+000
1.458107164067271e-005	7.555536e+000	7.929093e+000	1.999867e+000
1.499485751253816e-005	7.724907e+000	8.084670e+000	1.999867e+000
1.540864338440362e-005	7.888282e+000	8.234736e+000	1.999867e+000
1.582242925626908e-005	8.045662e+000	8.379290e+000	1.999867e+000
1.623621512813454e-005	8.197045e+000	8.518332e+000	1.999867e+000
1.665000100000000e-005	8.342432e+000	8.651863e+000	1.999867e+000
1.666000100000000e-005	8.345884e+000	8.655012e+000	1.999867e+000
1.666000110000000e-005	8.345884e+000	8.655012e+000	1.999864e+000
1.666000130000000e-005	8.345884e+000	8.655012e+000	1.999853e+000
1.666000170000000e-005	8.345884e+000	8.655012e+000	1.999811e+000
1.666000200000000e-005	8.345884e+000	8.655012e+000	1.999766e+000
1.666000208000000e-005	8.345884e+000	8.655012e+000	1.999750e+000
1.666000224000000e-005	8.345885e+000	8.655012e+000	1.999718e+000
1.666075117714240e-005	8.346143e+000	8.655248e+000	1.859031e+000
1.666150011428480e-005	8.346401e+000	8.655484e+000	1.727604e+000
1.666224905142720e-005	8.346659e+000	8.655719e+000	1.605437e+000
1.666299798856961e-005	8.346918e+000	8.655955e+000	1.492530e+000
1.666374692571201e-005	8.347176e+000	8.656191e+000	1.388883e+000
1.666449586285441e-005	8.347434e+000	8.656426e+000	1.294495e+000
1.666524479999681e-005	8.347692e+000	8.656662e+000	1.209368e+000
1.666891349074871e-005	8.348956e+000	8.657816e+000	8.446215e-001
1.667271363545515e-005	8.350264e+000	8.659011e+000	5.770984e-001
1.667680686973871e-005	8.351669e+000	8.660296e+000	3.812184e-001
1.668053714945114e-005	8.352950e+000	8.661469e+000	2.605893e-001
1.668443312559501e-005	8.354285e+000	8.662691e+000	1.757322e-001
1.668817048764239e-005	8.355566e+000	8.663864e+000	1.203216e-001
1.669206797859417e-005	8.356900e+000	8.665087e+000	8.114684e-002
1.669584316968134e-005	8.358192e+000	8.666271e+000	5.534017e-002
1.669971942485763e-005	8.359518e+000	8.667486e+000	3.738844e-002
1.670350643968885e-005	8.360813e+000	8.668673e+000	2.547123e-002
1.670736772084491e-005	8.362133e+000	8.669882e+000	1.723371e-002
1.671116684909576e-005	8.363431e+000	8.671071e+000	1.172761e-002
1.671501875442912e-005	8.364747e+000	8.672276e+000	7.941676e-003
1.671882607586285e-005	8.366047e+000	8.673467e+000	5.400210e-003
1.672267087038078e-005	8.367360e+000	8.674669e+000	3.659318e-003
1.672648399020831e-005	8.368661e+000	8.675860e+000	2.486944e-003
1.673032382566062e-005	8.369971e+000	8.677060e+000	1.685993e-003
1.673414112097170e-005	8.371273e+000	8.678252e+000	1.145390e-003
1.673797742346016e-005	8.372581e+000	8.679450e+000	7.767575e-004
1.674179768100636e-005	8.373883e+000	8.680641e+000	5.275503e-004
1.674563146867222e-005	8.375190e+000	8.681837e+000	3.578469e-004
1.674945383834998e-005	8.376492e+000	8.683028e+000	2.429913e-004
1.675328583859499e-005	8.377796e+000	8.684222e+000	1.648527e-004
1.676094044059149e-005	8.380402e+000	8.686606e+000	7.594263e-005
1.677426470250741e-005	8.384933e+000	8.690751e+000	2.031005e-005
1.678025526327270e-005	8.386968e+000	8.692612e+000	1.127539e-005
1.678714671240225e-005	8.389307e+000	8.694751e+000	5.274483e-006
1.678996140881051e-005	8.390262e+000	8.695624e+000	3.780464e-006
1.679172520656557e-005	8.390859e+000	8.696166e+000	3.140795e-006
1.679274182132492e-005	8.391187e+000	8.696257e+000	2.826217e-006
1.679307898764003e-005	8.391268e+000	8.696000e+000	2.730531e-006
1.679327501927605e-005	8.391290e+000	8.695776e+000	2.677199e-006
1.679336944475424e-005	8.391293e+000	8.695748e+000	2.651969e-006
1.679345809201003e-005	8.391293e+000	8.695779e+000	2.628564e-006
1.679355579201314e-005	8.391292e+000	8.695816e+000	2.603073e-006
1.679375119201938e-005	8.391292e+000	8.695892e+000	2.553059e-006
1.679414199203185e-005	8.391292e+000	8.696048e+000	2.456425e-006
1.679486083524141e-005	8.391291e+000	8.696329e+000	2.290094e-006
1.679917389449882e-005	8.391285e+000	8.697930e+000	1.536217e-006
1.680492464017537e-005	8.391277e+000	8.699925e+000	9.295429e-007
1.681492464017537e-005	8.391265e+000	8.703220e+000	3.641208e-007
1.683492464017538e-005	8.391242e+000	8.709517e+000	4.045068e-008
1.686635321160395e-005	8.391208e+000	8.719209e+000	2.252397e-008
1.689778178303253e-005	8.391177e+000	8.728866e+000	8.646614e-009
1.692921035446110e-005	8.391148e+000	8.738488e+000	-1.181400e-009
1.696063892588968e-005	8.391121e+000	8.748074e+000	-6.960069e-009
1.699206749731826e-005	8.391097e+000	8.757624e+000	-8.689392e-009
1.702349606874683e-005	8.391075e+000	8.767139e+000	-6.369369e-009
1.705492464017541e-005	8.391056e+000	8.776618e+000	1.286497e-018
1.708921035446113e-005	8.391037e+000	8.786923e+000	7.152087e-019
1.712349606874685e-005	8.391019e+000	8.797187e+000	2.730877e-019
1.715778178303257e-005	8.391003e+000	8.807410e+000	-3.986545e-020
1.719206749731829e-005	8.390988e+000	8.817592e+000	-2.236508e-019
1.722635321160401e-005	8.390974e+000	8.827733e+000	-2.782683e-019
1.726063892588973e-005	8.390963e+000	8.837833e+000	-2.037181e-019
1.729492464017545e-005	8.390952e+000	8.847892e+000	4.545402e-030
1.733206749731831e-005	8.390942e+000	8.858743e+000	2.523762e-030
1.736921035446117e-005	8.390932e+000	8.869545e+000	9.595541e-031
1.740635321160404e-005	8.390923e+000	8.880299e+000	-1.472214e-031
1.744349606874690e-005	8.390915e+000	8.891005e+000	-7.965645e-031
1.748063892588976e-005	8.390907e+000	8.901663e+000	-9.884753e-031
1.751778178303263e-005	8.390901e+000	8.912272e+000	-7.229538e-031
1.755492464017549e-005	8.390895e+000	8.922832e+000	1.783853e-042
1.759921035446121e-005	8.390889e+000	8.935361e+000	9.885160e-043
1.764349606874693e-005	8.390883e+000	8.947820e+000	3.733459e-043
1.768778178303265e-005	8.390878e+000	8.960210e+000	-6.165713e-044
1.773206749731838e-005	8.390873e+000	8.972530e+000	-3.164933e-043
1.777635321160410e-005	8.390869e+000	8.984780e+000	-3.911625e-043
1.782063892588982e-005	8.390865e+000	8.996961e+000	-2.856647e-043
1.786492464017554e-005	8.390862e+000	9.009072e+000	0.000000e+000
1.792349606874698e-005	8.390857e+000	9.024984e+000	0.000000e+000
1.798206749731842e-005	8.390854e+000	9.040774e+000	0.000000e+000
1.804063892588985e-005	8.390850e+000	9.056440e+000	0.000000e+000
1.809921035446129e-005	8.390846e+000	9.071984e+000	0.000000e+000
1.815778178303273e-005	8.390843e+000	9.087404e+000	0.000000e+000
1.821635321160417e-005	8.390840e+000	9.102702e+000	0.000000e+000
1.827492464017561e-005	8.390838e+000	9.117877e+000	0.000000e+000
1.837778178303276e-005	8.390833e+000	9.144229e+000	0.000000e+000
1.848063892588992e-005	8.390829e+000	9.170197e+000	0.000000e+000
1.858349606874708e-005	8.390825e+000	9.195779e+000	0.000000e+000
1.868635321160424e-005	8.390821e+000	9.220977e+000	0.000000e+000
1.878921035446140e-005	8.390818e+000	9.245791e+000	0.000000e+000
1.889206749731856e-005	8.390814e+000	9.270220e+000	0.000000e+000
1.899492464017572e-005	8.390811e+000	9.294264e+000	0.000000e+000
1.955492464017581e-005	8.390794e+000	9.418323e+000	0.000000e+000
1.969064969157928e-005	8.390790e+000	9.446645e+000	0.000000e+000
1.982637474298275e-005	8.390786e+000	9.474276e+000	0.000000e+000
1.996209979438621e-005	8.390781e+000	9.501215e+000	0.000000e+000
2.009782484578968e-005	8.390778e+000	9.527462e+000	0.000000e+000
2.023354989719314e-005	8.390774e+000	9.553017e+000	0.000000e+000
2.036927494859661e-005	8.390770e+000	9.577881e+000	0.000000e+000
2.050500000000008e-005	8.390766e+000	9.602052e+000	0.000000e+000
2.163642857142883e-005	8.390739e+000	9.776774e+000	0.000000e+000
2.276785714285758e-005	8.390712e+000	9.901285e+000	0.000000e+000
2.389928571428634e-005	8.390684e+000	9.975586e+000	0.000000e+000
2.503071428571509e-005	8.390656e+000	9.999676e+000	0.000000e+000
2.616214285714384e-005	8.390626e+000	9.973555e+000	0.000000e+000
2.729357142857260e-005	8.390597e+000	9.897223e+000	0.000000e+000
2.842500000000135e-005	8.390567e+000	9.770680e+000	0.000000e+000
2.976500000000156e-005	8.390526e+000	9.557010e+000	0.000000e+000
3.027428572857277e-005	8.390510e+000	9.457630e+000	-4.364438e-007
3.078357145714397e-005	8.390493e+000	9.348874e+000	-6.004238e-007
3.129285718571517e-005	8.390475e+000	9.230742e+000	-4.919400e-007
3.180214291428638e-005	8.390456e+000	9.103233e+000	-1.109924e-007
3.231142864285759e-005	8.390437e+000	8.966348e+000	5.424190e-007
3.282071437142879e-005	8.390418e+000	8.820087e+000	1.468294e-006
3.333000010000000e-005	8.390397e+000	8.664449e+000	2.666633e-006
3.333000055161900e-005	8.390397e+000	8.664448e+000	3.496197e-005
3.333000086450492e-005	8.390397e+000	8.664448e+000	8.481623e-005
3.333000117739083e-005	8.390397e+000	8.664448e+000	1.377830e-004
3.333000149027676e-005	8.390397e+000	8.664448e+000	1.938623e-004
3.333000180316267e-005	8.390397e+000	8.664448e+000	2.530541e-004
3.333000211604859e-005	8.390397e+000	8.664448e+000	3.153584e-004
3.333000242893450e-005	8.390397e+000	8.664448e+000	3.807752e-004
3.333000274182042e-005	8.390397e+000	8.664448e+000	4.493045e-004
3.333026550787242e-005	8.390397e+000	8.664365e+000	5.203919e-002
3.333052827392440e-005	8.390397e+000	8.664283e+000	1.021135e-001
3.333079103997640e-005	8.390397e+000	8.664200e+000	1.506722e-001
3.333105380602838e-005	8.390397e+000	8.664118e+000	1.977154e-001
3.333131657208038e-005	8.390397e+000	8.664035e+000	2.432430e-001
3.333157933813236e-005	8.390397e+000	8.663953e+000	2.872551e-001
3.333184210418435e-005	8.390397e+000	8.663871e+000	3.297516e-001
3.333368326455647e-005	8.390397e+000	8.663293e+000	5.951635e-001
3.333736558530069e-005	8.390397e+000	8.662137e+000	1.012979e+000
3.334112968339013e-005	8.390397e+000	8.660954e+000	1.318087e+000
3.334626030721993e-005	8.390398e+000	8.659343e+000	1.587083e+000
3.335150971944977e-005	8.390398e+000	8.657693e+000	1.753897e+000
3.335860698477410e-005	8.390399e+000	8.655459e+000	1.876245e+000
3.336637865796642e-005	8.390400e+000	8.653013e+000	1.942705e+000
3.337637865796643e-005	8.390402e+000	8.649861e+000	1.978904e+000
3.339637865796643e-005	8.390405e+000	8.643549e+000	1.997538e+000
3.421209294368085e-005	8.390512e+000	8.372450e+000	1.998584e+000
3.502780722939526e-005	8.390606e+000	8.081428e+000	1.999391e+000
3.584352151510968e-005	8.390686e+000	7.770484e+000	1.999962e+000
3.665923580082409e-005	8.390752e+000	7.439617e+000	2.000294e+000
3.747495008653851e-005	8.390804e+000	7.088827e+000	2.000390e+000
3.829066437225293e-005	8.390842e+000	6.718114e+000	2.000247e+000
3.910637865796734e-005	8.390866e+000	6.327478e+000	1.999867e+000
3.925637865796737e-005	8.390870e+000	6.254216e+000	1.999867e+000
3.959263482444776e-005	8.390878e+000	6.087784e+000	1.999867e+000
3.992889099092815e-005	8.390885e+000	5.918826e+000	1.999867e+000
4.026514715740855e-005	8.390890e+000	5.747343e+000	1.999867e+000
4.060140332388894e-005	8.390894e+000	5.573334e+000	1.999867e+000
4.093765949036934e-005	8.390896e+000	5.396800e+000	1.999867e+000
4.127391565684973e-005	8.390898e+000	5.217740e+000	1.999867e+000
4.161017182333012e-005	8.390898e+000	5.036155e+000	1.999867e+000
4.161258745727444e-005	8.390782e+000	5.034395e+000	1.999867e+000
4.161397287810196e-005	8.390377e+000	5.032239e+000	1.999867e+000
4.161470241829657e-005	8.389587e+000	5.029837e+000	1.999867e+000
4.161571752233709e-005	8.387489e+000	5.025060e+000	1.999867e+000
4.161598834093420e-005	8.386693e+000	5.023862e+000	1.999867e+000
4.161606302820471e-005	8.386431e+000	5.023719e+000	1.999867e+000
4.161611798622790e-005	8.386231e+000	5.023726e+000	1.999867e+000
