time	V(faa_in)	V(output)
0.000000000000000e+000	1.097053e-015	1.474701e-004
9.999999960041972e-012	7.848064e-006	1.474701e-004
1.999999992008394e-011	2.092423e-005	1.474701e-004
3.999999984016789e-011	6.901253e-005	1.474701e-004
7.999999968033578e-011	2.569018e-004	1.474701e-004
1.599999993606716e-010	1.006141e-003	1.474701e-004
3.199999987213431e-010	3.984521e-003	1.474701e-004
6.399999974426862e-010	1.442765e-002	1.474701e-004
1.000000000000000e-009	3.074807e-002	1.474701e-004
1.252000001790120e-009	4.593273e-002	1.474701e-004
1.540000003835971e-009	6.292844e-002	1.474701e-004
2.116000007927673e-009	9.580433e-002	1.474701e-004
3.268000016111078e-009	1.573769e-001	1.474701e-004
5.572000032477887e-009	2.657938e-001	1.474701e-004
1.018000006521150e-008	4.362024e-001	1.474701e-004
1.939600013067874e-008	6.560236e-001	1.474701e-004
3.782800026161321e-008	8.613301e-001	1.474701e-004
7.469200052348216e-008	9.811830e-001	1.474701e-004
1.179113969136816e-007	9.998578e-001	1.474701e-004
1.276220308256064e-007	9.993967e-001	1.474701e-004
1.488640425079420e-007	9.998707e-001	1.474701e-004
1.512917009859232e-007	9.998867e-001	1.474701e-004
1.561470179418856e-007	9.999117e-001	1.474701e-004
1.658576518538104e-007	9.999434e-001	1.474701e-004
1.852789196776601e-007	9.999720e-001	1.474701e-004
2.241214553253594e-007	9.999872e-001	1.474701e-004
3.018065266207580e-007	9.999902e-001	1.474701e-004
4.571766692115552e-007	9.999900e-001	1.474701e-004
7.679169543931497e-007	9.999900e-001	1.474701e-004
1.389397524756339e-006	9.999900e-001	1.474701e-004
2.389397524756339e-006	9.999900e-001	1.474701e-004
3.389397524756339e-006	9.999900e-001	1.474703e-004
4.389397524756338e-006	9.999900e-001	1.474711e-004
5.389397524756338e-006	9.999900e-001	1.474737e-004
6.389397524756338e-006	9.999900e-001	1.474808e-004
7.389397524756338e-006	9.999900e-001	1.474980e-004
8.389397524756338e-006	9.999900e-001	1.475359e-004
9.389397524756339e-006	9.999900e-001	1.476069e-004
1.011200000000000e-005	9.999899e-001	1.476828e-004
1.011500000000000e-005	9.999899e-001	1.476832e-004
1.011900000000000e-005	9.999899e-001	1.476838e-004
1.019114285714290e-005	9.999899e-001	1.476949e-004
1.026328571428579e-005	9.999900e-001	1.477064e-004
1.033542857142868e-005	9.999900e-001	1.477183e-004
1.040757142857158e-005	9.999900e-001	1.477306e-004
1.047971428571447e-005	9.999900e-001	1.477434e-004
1.055185714285736e-005	9.999900e-001	1.477566e-004
1.062400000000025e-005	9.999900e-001	1.477702e-004
1.063000000000026e-005	9.999900e-001	1.477714e-004
1.068600000000029e-005	9.999900e-001	1.477827e-004
1.075000000000032e-005	9.999900e-001	1.477962e-004
1.080171428571456e-005	9.999900e-001	1.478072e-004
1.085342857142880e-005	9.999900e-001	1.478186e-004
1.090514285714304e-005	9.999900e-001	1.478303e-004
1.095685714285728e-005	9.999900e-001	1.478424e-004
1.100857142857152e-005	9.999900e-001	1.478548e-004
1.106028571428576e-005	9.999900e-001	1.478677e-004
1.111200000000000e-005	9.999900e-001	1.478809e-004
1.111282500000000e-005	9.999900e-001	1.478811e-004
1.111290000000000e-005	9.999900e-001	1.478811e-004
1.111300000000000e-005	9.999900e-001	1.478811e-004
1.111302299107143e-005	9.999900e-001	1.478811e-004
1.111304598214285e-005	9.999900e-001	1.478811e-004
1.111306897321428e-005	9.999900e-001	1.478811e-004
1.111309196428571e-005	9.999900e-001	1.478811e-004
1.111311495535714e-005	9.999900e-001	1.478811e-004
1.111313794642857e-005	9.999900e-001	1.478812e-004
1.111316093750000e-005	9.999900e-001	1.478812e-004
1.121576093749862e-005	9.999900e-001	1.479089e-004
1.131836093749724e-005	9.999900e-001	1.479381e-004
1.142096093749587e-005	9.999900e-001	1.479689e-004
1.152356093749449e-005	9.999900e-001	1.480013e-004
1.162616093749312e-005	9.999900e-001	1.480352e-004
1.172876093749174e-005	9.999900e-001	1.480707e-004
1.183136093749036e-005	9.999900e-001	1.481077e-004
1.211200000000000e-005	9.999900e-001	1.482213e-004
1.211300000000000e-005	9.999900e-001	1.482218e-004
1.224757714285687e-005	9.999900e-001	1.482827e-004
1.238215428571373e-005	9.999900e-001	1.483481e-004
1.251673142857060e-005	9.999900e-001	1.484178e-004
1.265130857142747e-005	9.999900e-001	1.484919e-004
1.278588571428434e-005	9.999900e-001	1.485704e-004
1.292046285714121e-005	9.999900e-001	1.486533e-004
1.305503999999807e-005	9.999900e-001	1.487405e-004
1.306527999999805e-005	9.999900e-001	1.487475e-004
1.306783999999805e-005	9.999900e-001	1.487492e-004
1.307295999999804e-005	9.999900e-001	1.487527e-004
1.307423999999804e-005	9.999900e-001	1.487536e-004
1.307679999999803e-005	9.999900e-001	1.487554e-004
1.312287999999794e-005	9.999900e-001	1.487873e-004
1.316895999999784e-005	9.999900e-001	1.488202e-004
1.321503999999775e-005	9.999900e-001	1.488539e-004
1.326111999999765e-005	9.999900e-001	1.488885e-004
1.330719999999756e-005	9.999900e-001	1.489241e-004
1.335327999999746e-005	9.999900e-001	1.489605e-004
1.339935999999737e-005	9.999900e-001	1.489978e-004
1.372703999999670e-005	9.999900e-001	1.492938e-004
1.438239999999536e-005	9.999900e-001	1.500448e-004
1.538239999999536e-005	9.999900e-001	1.515973e-004
1.638239999999536e-005	9.999900e-001	1.537684e-004
1.738239999999536e-005	9.999900e-001	1.567883e-004
1.838239999999536e-005	9.999900e-001	1.608756e-004
1.938239999999536e-005	9.999900e-001	1.662712e-004
2.038239999999537e-005	9.999900e-001	1.731536e-004
2.122499999999999e-005	9.999900e-001	1.799859e-004
2.125299999999996e-005	9.999900e-001	1.802495e-004
2.134899999999985e-005	9.999900e-001	1.811688e-004
2.147699999999969e-005	9.999900e-001	1.824323e-004
2.158342857142831e-005	9.999900e-001	1.834910e-004
2.168985714285692e-005	9.999900e-001	1.845761e-004
2.179628571428554e-005	9.999900e-001	1.856876e-004
2.190271428571415e-005	9.999900e-001	1.868256e-004
2.200914285714277e-005	9.999900e-001	1.879901e-004
2.211557142857138e-005	9.999900e-001	1.891809e-004
2.222200000000000e-005	9.999900e-001	1.903982e-004
2.222210000000000e-005	9.999900e-001	1.903994e-004
2.222230000000000e-005	9.999900e-001	1.904017e-004
2.222260000000000e-005	9.999900e-001	1.904052e-004
2.222300000000000e-005	9.999900e-001	1.904098e-004
2.222445714285714e-005	9.999900e-001	1.904266e-004
2.222591428571429e-005	9.999900e-001	1.904435e-004
2.222737142857144e-005	9.999900e-001	1.904603e-004
2.222882857142858e-005	9.999900e-001	1.904772e-004
2.223028571428573e-005	9.999900e-001	1.904941e-004
2.223174285714287e-005	9.999900e-001	1.905109e-004
2.223320000000002e-005	9.999900e-001	1.905278e-004
2.224344000000004e-005	9.999900e-001	1.906466e-004
2.226392000000009e-005	9.999900e-001	1.908850e-004
2.231512000000020e-005	9.999900e-001	1.914842e-004
2.235096000000028e-005	9.999900e-001	1.919075e-004
2.237144000000032e-005	9.999900e-001	1.921511e-004
2.241240000000041e-005	9.999900e-001	1.926419e-004
2.249432000000059e-005	9.999900e-001	1.936385e-004
2.265816000000095e-005	9.999900e-001	1.956921e-004
2.298584000000167e-005	9.999900e-001	2.000483e-004
2.364120000000310e-005	9.999900e-001	2.096637e-004
2.464120000000310e-005	9.999900e-001	2.263277e-004
2.564120000000311e-005	9.999900e-001	2.455318e-004
2.664120000000311e-005	9.999900e-001	2.676098e-004
2.764120000000311e-005	9.999900e-001	2.926303e-004
2.864120000000311e-005	9.999900e-001	3.206309e-004
2.964120000000311e-005	9.999900e-001	3.516516e-004
3.064120000000310e-005	9.999900e-001	3.857888e-004
3.164120000000310e-005	9.999900e-001	4.229685e-004
3.233400000000001e-005	9.999900e-001	4.503574e-004
3.233500000000001e-005	9.999900e-001	4.503985e-004
3.233700000000002e-005	9.999900e-001	4.504821e-004
3.234100000000004e-005	9.999900e-001	4.506493e-004
3.234900000000009e-005	9.999900e-001	4.509840e-004
3.239700000000035e-005	9.999900e-001	4.529991e-004
3.258900000000143e-005	9.999900e-001	4.611826e-004
3.284500000000285e-005	9.999900e-001	4.722639e-004
3.284800000000287e-005	9.999900e-001	4.723957e-004
3.285200000000290e-005	9.999900e-001	4.725718e-004
3.288742857143167e-005	9.999900e-001	4.741380e-004
3.292285714286043e-005	9.999900e-001	4.757089e-004
3.295828571428920e-005	9.999900e-001	4.772847e-004
3.299371428571798e-005	9.999900e-001	4.788652e-004
3.302914285714674e-005	9.999900e-001	4.804506e-004
3.306457142857551e-005	9.999900e-001	4.820407e-004
3.310000000000428e-005	9.999900e-001	4.836356e-004
3.310300000000430e-005	9.999900e-001	4.837711e-004
3.322800000000500e-005	9.999900e-001	4.894619e-004
3.333400000000000e-005	9.999900e-001	4.943493e-004
3.333482500000000e-005	9.999900e-001	4.943875e-004
3.333490000000000e-005	9.999900e-001	4.943910e-004
3.333500000000000e-005	9.999900e-001	4.943957e-004
3.333500156250000e-005	9.999900e-001	4.943957e-004
3.333500343750000e-005	9.999900e-001	4.943958e-004
3.333501093750000e-005	9.999900e-001	4.943962e-004
3.343306093750339e-005	9.999900e-001	4.989908e-004
3.353111093750677e-005	9.999900e-001	5.036319e-004
3.362916093751016e-005	9.999900e-001	5.083195e-004
3.372721093751355e-005	9.999900e-001	5.130536e-004
3.382526093751694e-005	9.999900e-001	5.178341e-004
3.392331093752032e-005	9.999900e-001	5.226611e-004
3.402136093752371e-005	9.999900e-001	5.275346e-004
3.433400000000000e-005	9.999900e-001	5.435687e-004
3.433500000000000e-005	9.999900e-001	5.436210e-004
3.447104000000030e-005	9.999900e-001	5.508230e-004
3.460708000000059e-005	9.999900e-001	5.581618e-004
3.474312000000089e-005	9.999900e-001	5.656375e-004
3.487916000000119e-005	9.999900e-001	5.732502e-004
3.501520000000149e-005	9.999900e-001	5.809997e-004
3.515124000000179e-005	9.999900e-001	5.888862e-004
3.528728000000209e-005	9.999900e-001	5.969096e-004
3.528984000000209e-005	9.999900e-001	5.970628e-004
3.529048000000210e-005	9.999900e-001	5.971012e-004
3.529176000000210e-005	9.999900e-001	5.971778e-004
3.529432000000210e-005	9.999900e-001	5.973312e-004
3.529944000000211e-005	9.999900e-001	5.976382e-004
3.530968000000214e-005	9.999900e-001	5.982531e-004
3.533016000000218e-005	9.999900e-001	5.994865e-004
3.537112000000227e-005	9.999900e-001	6.019680e-004
3.545304000000245e-005	9.999900e-001	6.069908e-004
3.561688000000281e-005	9.999900e-001	6.172876e-004
3.594456000000353e-005	9.999900e-001	6.389897e-004
3.659992000000496e-005	9.999900e-001	6.869101e-004
3.759992000000496e-005	9.999900e-001	7.714988e-004
3.859992000000496e-005	9.999900e-001	8.735147e-004
3.959992000000496e-005	9.999900e-001	9.995805e-004
4.059992000000495e-005	9.999900e-001	1.156247e-003
4.159992000000495e-005	9.999900e-001	1.351001e-003
4.259992000000495e-005	9.999900e-001	1.589832e-003
4.275693142857575e-005	9.999900e-001	1.628311e-003
4.291394285714655e-005	9.999900e-001	1.668975e-003
4.307095428571736e-005	9.999900e-001	1.711824e-003
4.322796571428815e-005	9.999900e-001	1.756858e-003
4.338497714285895e-005	9.999900e-001	1.804077e-003
4.354198857142976e-005	9.999900e-001	1.853481e-003
4.369900000000056e-005	9.999900e-001	1.905070e-003
4.380528571428619e-005	9.999900e-001	1.940330e-003
4.391157142857183e-005	9.999900e-001	1.976413e-003
4.401785714285746e-005	9.999900e-001	2.013317e-003
4.412414285714309e-005	9.999900e-001	2.051043e-003
4.423042857142873e-005	9.999900e-001	2.089591e-003
4.433671428571436e-005	9.999900e-001	2.128962e-003
4.444299999999999e-005	9.999900e-001	2.169154e-003
4.444400000000000e-005	9.999900e-001	2.169536e-003
4.444410000000000e-005	9.999900e-001	2.169574e-003
4.444430000000000e-005	9.999900e-001	2.169650e-003
4.444460000000000e-005	9.999900e-001	2.169765e-003
4.444500000000000e-005	9.999900e-001	2.169918e-003
4.444792000000001e-005	9.999900e-001	2.171033e-003
4.445084000000001e-005	9.999900e-001	2.172150e-003
4.445376000000002e-005	9.999900e-001	2.173267e-003
4.445668000000002e-005	9.999900e-001	2.174385e-003
4.445960000000003e-005	9.999900e-001	2.175503e-003
4.446252000000004e-005	9.999900e-001	2.176623e-003
4.446544000000005e-005	9.999900e-001	2.177743e-003
4.448592000000009e-005	9.999900e-001	2.185622e-003
4.452688000000018e-005	9.999900e-001	2.201443e-003
4.453712000000020e-005	9.999900e-001	2.205416e-003
4.456272000000026e-005	9.999900e-001	2.215389e-003
4.457296000000028e-005	9.999900e-001	2.219395e-003
4.459344000000033e-005	9.999900e-001	2.227436e-003
4.463440000000041e-005	9.999900e-001	2.243634e-003
4.471632000000060e-005	9.999900e-001	2.276503e-003
4.488016000000096e-005	9.999900e-001	2.344168e-003
4.520784000000167e-005	9.999900e-001	2.487488e-003
4.586320000000311e-005	9.999900e-001	2.803589e-003
4.686320000000311e-005	9.999900e-001	3.352236e-003
4.786320000000310e-005	9.999900e-001	3.987825e-003
4.886320000000310e-005	9.999900e-001	4.725358e-003
4.986320000000310e-005	9.999900e-001	5.572098e-003
5.086320000000310e-005	9.999900e-001	6.535075e-003
5.186320000000309e-005	9.999900e-001	7.621907e-003
5.286320000000309e-005	9.999900e-001	8.842166e-003
5.386320000000309e-005	9.999900e-001	1.019598e-002
5.455600000000000e-005	9.999900e-001	1.120612e-002
5.455700000000000e-005	9.999900e-001	1.120764e-002
5.455900000000000e-005	9.999900e-001	1.121076e-002
5.456300000000001e-005	9.999900e-001	1.121699e-002
5.457100000000003e-005	9.999900e-001	1.122947e-002
5.458700000000007e-005	9.999900e-001	1.125447e-002
5.461900000000014e-005	9.999900e-001	1.130465e-002
5.468300000000028e-005	9.999900e-001	1.140571e-002
5.481100000000056e-005	9.999900e-001	1.161070e-002
5.506700000000112e-005	9.999900e-001	1.202613e-002
5.506800000000112e-005	9.999900e-001	1.202778e-002
5.507000000000112e-005	9.999900e-001	1.203108e-002
5.507400000000113e-005	9.999900e-001	1.203770e-002
5.508200000000115e-005	9.999900e-001	1.205095e-002
5.509800000000119e-005	9.999900e-001	1.207750e-002
5.519400000000140e-005	9.999900e-001	1.223812e-002
5.532200000000168e-005	9.999900e-001	1.245424e-002
5.532500000000168e-005	9.999900e-001	1.245935e-002
5.532900000000169e-005	9.999900e-001	1.246617e-002
5.533700000000171e-005	9.999900e-001	1.247984e-002
5.538500000000182e-005	9.999900e-001	1.256215e-002
5.544900000000196e-005	9.999900e-001	1.267241e-002
5.545200000000196e-005	9.999900e-001	1.267760e-002
5.551300000000210e-005	9.999900e-001	1.278364e-002
5.551914285714465e-005	9.999900e-001	1.279436e-002
5.552528571428721e-005	9.999900e-001	1.280509e-002
5.553142857142977e-005	9.999900e-001	1.281583e-002
5.553757142857232e-005	9.999900e-001	1.282658e-002
5.554371428571488e-005	9.999900e-001	1.283733e-002
5.554985714285744e-005	9.999900e-001	1.284809e-002
5.555600000000000e-005	9.999900e-001	1.285886e-002
5.555682500000000e-005	9.999900e-001	1.286031e-002
5.555690000000000e-005	9.999900e-001	1.286044e-002
5.555700000000000e-005	9.999900e-001	1.286062e-002
5.555700156250000e-005	9.999900e-001	1.286062e-002
5.555700343750000e-005	9.999900e-001	1.286062e-002
5.556285450892898e-005	9.999900e-001	1.287089e-002
5.556870558035796e-005	9.999900e-001	1.288117e-002
5.557455665178694e-005	9.999900e-001	1.289146e-002
5.558040772321592e-005	9.999900e-001	1.290175e-002
5.558625879464490e-005	9.999900e-001	1.291206e-002
5.559210986607389e-005	9.999900e-001	1.292237e-002
5.559796093750287e-005	9.999900e-001	1.293270e-002
5.563892093750573e-005	9.999900e-001	1.300524e-002
5.572084093751146e-005	9.999900e-001	1.315171e-002
5.588468093752292e-005	9.999900e-001	1.345045e-002
5.598058366073394e-005	9.999900e-001	1.362557e-002
5.607648638394494e-005	9.999900e-001	1.380318e-002
5.617238910715596e-005	9.999900e-001	1.398328e-002
5.626829183036696e-005	9.999900e-001	1.416588e-002
5.636419455357798e-005	9.999900e-001	1.435097e-002
5.646009727678899e-005	9.999900e-001	1.453856e-002
5.655600000000000e-005	9.999900e-001	1.472864e-002
5.655699999999999e-005	9.999900e-001	1.473063e-002
5.660380571428581e-005	9.999900e-001	1.482431e-002
5.665061142857163e-005	9.999900e-001	1.491875e-002
5.669741714285744e-005	9.999900e-001	1.501397e-002
5.674422285714327e-005	9.999900e-001	1.510995e-002
5.679102857142908e-005	9.999900e-001	1.520671e-002
5.683783428571490e-005	9.999900e-001	1.530424e-002
5.688464000000072e-005	9.999900e-001	1.540254e-002
5.721232000000143e-005	9.999900e-001	1.610016e-002
5.729424000000161e-005	9.999900e-001	1.627932e-002
5.745808000000198e-005	9.999900e-001	1.664538e-002
5.750928000000209e-005	9.999900e-001	1.676122e-002
5.751184000000209e-005	9.999900e-001	1.676706e-002
5.751696000000210e-005	9.999900e-001	1.677873e-002
5.752720000000213e-005	9.999900e-001	1.680212e-002
5.754768000000217e-005	9.999900e-001	1.684902e-002
5.758864000000226e-005	9.999900e-001	1.694335e-002
5.767056000000244e-005	9.999900e-001	1.713418e-002
5.783440000000280e-005	9.999900e-001	1.752485e-002
5.816208000000352e-005	9.999900e-001	1.834514e-002
5.881744000000495e-005	9.999900e-001	2.013968e-002
5.981744000000495e-005	9.999900e-001	2.325639e-002
6.081744000000495e-005	9.999900e-001	2.692859e-002
6.181744000000495e-005	9.999900e-001	3.134243e-002
6.281744000000494e-005	9.999900e-001	3.667174e-002
6.381744000000494e-005	9.999900e-001	4.311243e-002
6.481744000000494e-005	9.999900e-001	5.081556e-002
6.566600000000001e-005	9.999900e-001	5.823320e-002
6.566700000000001e-005	9.999900e-001	5.824267e-002
6.566900000000001e-005	9.999900e-001	5.826233e-002
6.567300000000002e-005	9.999900e-001	5.830166e-002
6.568100000000004e-005	9.999900e-001	5.838043e-002
6.569700000000007e-005	9.999900e-001	5.853840e-002
6.572900000000014e-005	9.999900e-001	5.885601e-002
6.579300000000028e-005	9.999900e-001	5.949805e-002
6.592100000000056e-005	9.999900e-001	6.080974e-002
6.617700000000113e-005	9.999900e-001	6.348522e-002
6.617800000000113e-005	9.999900e-001	6.349584e-002
6.618000000000113e-005	9.999900e-001	6.351735e-002
6.618400000000114e-005	9.999900e-001	6.356037e-002
6.619200000000116e-005	9.999900e-001	6.364652e-002
6.620800000000119e-005	9.999900e-001	6.381927e-002
6.624000000000126e-005	9.999900e-001	6.416659e-002
6.630400000000140e-005	9.999900e-001	6.486847e-002
6.643200000000168e-005	9.999900e-001	6.628588e-002
6.643300000000169e-005	9.999900e-001	6.629705e-002
6.643500000000169e-005	9.999900e-001	6.631951e-002
6.643900000000170e-005	9.999900e-001	6.636446e-002
6.644700000000172e-005	9.999900e-001	6.645447e-002
6.646300000000175e-005	9.999900e-001	6.663497e-002
6.649500000000182e-005	9.999900e-001	6.699782e-002
6.655900000000196e-005	9.999900e-001	6.772701e-002
6.656000000000197e-005	9.999900e-001	6.773845e-002
6.656200000000197e-005	9.999900e-001	6.776141e-002
6.656600000000198e-005	9.999900e-001	6.780733e-002
6.657400000000200e-005	9.999900e-001	6.789932e-002
6.659000000000203e-005	9.999900e-001	6.808376e-002
6.662200000000210e-005	9.999900e-001	6.845352e-002
6.662300000000210e-005	9.999900e-001	6.846510e-002
6.662500000000211e-005	9.999900e-001	6.848830e-002
6.662900000000212e-005	9.999900e-001	6.853472e-002
6.663700000000213e-005	9.999900e-001	6.862769e-002
6.664999999999997e-005	9.999900e-001	6.877891e-002
6.665099999999997e-005	9.999900e-001	6.879055e-002
6.665299999999997e-005	9.999900e-001	6.881386e-002
6.665699999999998e-005	9.999900e-001	6.886049e-002
6.665799999999998e-005	9.999900e-001	6.887215e-002
6.665999999999998e-005	9.999900e-001	6.889549e-002
6.666200000000002e-005	9.999900e-001	6.891882e-002
6.666300000000002e-005	9.999900e-001	6.893050e-002
6.666400000000000e-005	9.999900e-001	6.894217e-002
6.666500000000000e-005	9.999900e-001	6.895386e-002
6.666600000000000e-005	9.999900e-001	6.896553e-002
6.666610000000000e-005	9.999900e-001	6.896670e-002
6.666630000000000e-005	9.999900e-001	6.896903e-002
6.666660000000000e-005	9.999900e-001	6.897254e-002
6.666700000000000e-005	9.999900e-001	6.897721e-002
6.666845714285714e-005	9.999900e-001	6.899424e-002
6.666991428571430e-005	9.999900e-001	6.901127e-002
6.667137142857144e-005	9.999900e-001	6.902831e-002
6.667282857142859e-005	9.999900e-001	6.904535e-002
6.667428571428573e-005	9.999900e-001	6.906239e-002
6.667574285714289e-005	9.999900e-001	6.907944e-002
6.667720000000003e-005	9.999900e-001	6.909650e-002
6.668744000000005e-005	9.999900e-001	6.921651e-002
6.670792000000010e-005	9.999900e-001	6.945732e-002
6.675912000000021e-005	9.999900e-001	7.006194e-002
6.678472000000027e-005	9.999900e-001	7.036631e-002
6.679496000000030e-005	9.999900e-001	7.048852e-002
