time	V(faa_in)	V(output)
0.000000000000000e+000	1.097053e-015	1.474701e-004
9.999999960041972e-012	-1.809528e-013	1.474701e-004
1.999999992008394e-011	-5.907005e-013	1.474701e-004
3.999999984016789e-011	-2.883263e-012	1.474701e-004
7.999999968033578e-011	-1.727438e-011	1.474701e-004
1.599999993606716e-010	-9.312260e-011	1.474701e-004
3.199999987213431e-010	-1.191367e-010	1.474701e-004
6.399999974426862e-010	3.056131e-009	1.474701e-004
1.000000000000000e-009	1.246511e-008	1.474701e-004
1.653142861782556e-009	3.464938e-008	1.474701e-004
2.306285723565111e-009	2.612403e-007	1.474701e-004
2.959428585347666e-009	6.922378e-007	1.474701e-004
3.612571447130222e-009	1.327642e-006	1.474701e-004
4.265714308912778e-009	2.167453e-006	1.474701e-004
4.918857170695333e-009	3.211670e-006	1.474701e-004
5.572000032477887e-009	4.460294e-006	1.474701e-004
1.018000006521150e-008	2.325021e-005	1.474701e-004
1.939600013067874e-008	1.114828e-004	1.474701e-004
3.782800026161321e-008	4.446931e-004	1.474701e-004
7.469200052348216e-008	1.369408e-003	1.474701e-004
1.023400007198839e-007	2.215786e-003	1.474701e-004
1.392040009817528e-007	3.372974e-003	1.474701e-004
1.484200010472200e-007	3.662532e-003	1.474701e-004
1.668520011781545e-007	4.241664e-003	1.474701e-004
2.037160014400235e-007	5.399791e-003	1.474701e-004
2.774440019637613e-007	7.715915e-003	1.474701e-004
4.249000030112371e-007	1.234792e-002	1.474701e-004
7.198120051061886e-007	2.161038e-002	1.474701e-004
1.309636009296092e-006	4.012533e-002	1.474701e-004
2.309636009296092e-006	7.147913e-002	1.474701e-004
3.309636009296092e-006	1.027659e-001	1.474703e-004
4.309636009296091e-006	1.339512e-001	1.474710e-004
5.309636009296091e-006	1.650043e-001	1.474734e-004
6.309636009296091e-006	1.958946e-001	1.474800e-004
7.309636009296091e-006	2.265916e-001	1.474961e-004
8.309636009296091e-006	2.570649e-001	1.475319e-004
9.309636009296092e-006	2.872990e-001	1.476006e-004
1.011300000000000e-005	3.114348e-001	1.476834e-004
1.011900000000000e-005	3.116140e-001	1.476843e-004
1.026085714285715e-005	3.158456e-001	1.477057e-004
1.040271428571429e-005	3.200708e-001	1.477293e-004
1.054457142857143e-005	3.242895e-001	1.477552e-004
1.068642857142857e-005	3.285017e-001	1.477834e-004
1.082828571428572e-005	3.327075e-001	1.478139e-004
1.097014285714286e-005	3.369068e-001	1.478466e-004
1.111200000000000e-005	3.410996e-001	1.478817e-004
1.111277500000000e-005	3.411225e-001	1.478819e-004
1.111282500000000e-005	3.411240e-001	1.478819e-004
1.111290000000000e-005	3.411262e-001	1.478819e-004
1.111300000000000e-005	3.411292e-001	1.478819e-004
1.111300125000000e-005	3.411292e-001	1.478819e-004
1.111300156250000e-005	3.411292e-001	1.478819e-004
1.111300218750000e-005	3.411292e-001	1.478819e-004
1.111300343750000e-005	3.411293e-001	1.478819e-004
1.111300593750000e-005	3.411293e-001	1.478819e-004
1.111301093750000e-005	3.411295e-001	1.478819e-004
1.111302093750000e-005	3.411298e-001	1.478819e-004
1.111304093750000e-005	3.411304e-001	1.478819e-004
1.111316093750000e-005	3.411339e-001	1.478820e-004
1.125585223214285e-005	3.453442e-001	1.479199e-004
1.139854352678571e-005	3.495475e-001	1.479613e-004
1.154123482142857e-005	3.537436e-001	1.480064e-004
1.168392611607143e-005	3.579327e-001	1.480551e-004
1.182661741071429e-005	3.621148e-001	1.481073e-004
1.196930870535714e-005	3.662897e-001	1.481632e-004
1.211200000000000e-005	3.704576e-001	1.482226e-004
1.211300000000000e-005	3.704868e-001	1.482230e-004
1.224757714285687e-005	3.744088e-001	1.482841e-004
1.238215428571373e-005	3.783246e-001	1.483495e-004
1.251673142857060e-005	3.822340e-001	1.484193e-004
1.265130857142747e-005	3.861372e-001	1.484935e-004
1.278588571428434e-005	3.900340e-001	1.485720e-004
1.292046285714121e-005	3.939246e-001	1.486550e-004
1.305503999999807e-005	3.978088e-001	1.487423e-004
1.306527999999805e-005	3.981040e-001	1.487493e-004
1.306783999999805e-005	3.981777e-001	1.487510e-004
1.307295999999804e-005	3.983253e-001	1.487546e-004
1.307423999999804e-005	3.983622e-001	1.487554e-004
1.307679999999803e-005	3.984359e-001	1.487572e-004
1.315359999999787e-005	4.006474e-001	1.488110e-004
1.323551999999771e-005	4.030030e-001	1.488711e-004
1.339935999999737e-005	4.077041e-001	1.489999e-004
1.372703999999670e-005	4.170652e-001	1.492961e-004
1.438239999999536e-005	4.356387e-001	1.500478e-004
1.538239999999536e-005	4.636520e-001	1.516018e-004
1.638239999999536e-005	4.912442e-001	1.537748e-004
1.738239999999536e-005	5.183516e-001	1.567971e-004
1.838239999999536e-005	5.449475e-001	1.608876e-004
1.938239999999536e-005	5.710056e-001	1.662871e-004
2.038239999999537e-005	5.965241e-001	1.731738e-004
2.122200000000000e-005	6.176041e-001	1.799821e-004
2.122300000000000e-005	6.176289e-001	1.799911e-004
2.122899999999999e-005	6.177772e-001	1.800474e-004
2.123699999999998e-005	6.179748e-001	1.801226e-004
2.125299999999996e-005	6.183698e-001	1.802736e-004
2.128499999999992e-005	6.191593e-001	1.805775e-004
2.134899999999985e-005	6.207359e-001	1.811932e-004
2.147371428571415e-005	6.238033e-001	1.824091e-004
2.159842857142846e-005	6.268609e-001	1.836592e-004
2.172314285714277e-005	6.299088e-001	1.849437e-004
2.184785714285708e-005	6.329469e-001	1.862626e-004
2.197257142857138e-005	6.359753e-001	1.876158e-004
2.209728571428569e-005	6.389940e-001	1.890033e-004
2.222200000000000e-005	6.420029e-001	1.904252e-004
2.222210000000000e-005	6.420053e-001	1.904264e-004
2.222230000000000e-005	6.420102e-001	1.904287e-004
2.222260000000000e-005	6.420174e-001	1.904322e-004
2.222300000000000e-005	6.420270e-001	1.904368e-004
2.222312000000000e-005	6.420299e-001	1.904382e-004
2.222360000000000e-005	6.420414e-001	1.904437e-004
2.222424000000000e-005	6.420568e-001	1.904511e-004
2.222552000000000e-005	6.420877e-001	1.904659e-004
2.222808000000001e-005	6.421493e-001	1.904955e-004
2.223320000000002e-005	6.422726e-001	1.905548e-004
2.224344000000004e-005	6.425191e-001	1.906736e-004
2.226392000000009e-005	6.430119e-001	1.909120e-004
2.230488000000018e-005	6.439969e-001	1.913910e-004
2.231512000000020e-005	6.442430e-001	1.915113e-004
2.234072000000025e-005	6.448579e-001	1.918133e-004
2.235096000000028e-005	6.451037e-001	1.919346e-004
2.237144000000032e-005	6.455951e-001	1.921782e-004
2.241240000000041e-005	6.465768e-001	1.926691e-004
2.249432000000059e-005	6.485362e-001	1.936657e-004
2.265816000000095e-005	6.524389e-001	1.957193e-004
2.298584000000167e-005	6.601789e-001	2.000744e-004
2.364120000000310e-005	6.754265e-001	2.096832e-004
2.464120000000310e-005	6.981896e-001	2.263217e-004
2.564120000000311e-005	7.203208e-001	2.454667e-004
2.664120000000311e-005	7.417411e-001	2.674180e-004
2.764120000000311e-005	7.624293e-001	2.921813e-004
2.864120000000311e-005	7.823651e-001	3.196784e-004
2.964120000000311e-005	8.015288e-001	3.497427e-004
3.064120000000310e-005	8.199016e-001	3.821206e-004
3.164120000000310e-005	8.375289e-001	4.163687e-004
3.233400000000001e-005	8.493590e-001	4.409295e-004
3.233700000000002e-005	8.494089e-001	4.410383e-004
3.240971428571471e-005	8.506098e-001	4.436900e-004
3.248242857142940e-005	8.518071e-001	4.463468e-004
3.255514285714409e-005	8.530006e-001	4.490088e-004
3.262785714285879e-005	8.541905e-001	4.516760e-004
3.270057142857348e-005	8.553767e-001	4.543482e-004
3.277328571428817e-005	8.565593e-001	4.570257e-004
3.284600000000286e-005	8.577382e-001	4.597082e-004
3.291571428571674e-005	8.588619e-001	4.622886e-004
3.298542857143061e-005	8.599815e-001	4.648735e-004
3.305514285714449e-005	8.610970e-001	4.674628e-004
3.312485714285837e-005	8.622084e-001	4.700566e-004
3.319457142857225e-005	8.633157e-001	4.726548e-004
3.326428571428612e-005	8.644188e-001	4.752575e-004
3.333400000000000e-005	8.655179e-001	4.778647e-004
3.333410714285714e-005	8.655196e-001	4.778687e-004
3.333421428571428e-005	8.655213e-001	4.778727e-004
3.333432142857143e-005	8.655230e-001	4.778768e-004
3.333442857142857e-005	8.655247e-001	4.778808e-004
3.333453571428571e-005	8.655264e-001	4.778848e-004
3.333464285714286e-005	8.655281e-001	4.778888e-004
3.333475000000000e-005	8.655297e-001	4.778928e-004
3.333482500000000e-005	8.655309e-001	4.778956e-004
3.333490000000000e-005	8.655321e-001	4.778984e-004
3.333500000000000e-005	8.655336e-001	4.779022e-004
3.333500125000000e-005	8.655337e-001	4.779022e-004
3.333500156250000e-005	8.655337e-001	4.779022e-004
3.333500218750000e-005	8.655337e-001	4.779022e-004
3.333500343750000e-005	8.655337e-001	4.779023e-004
3.333500593750000e-005	8.655338e-001	4.779024e-004
3.333501093750000e-005	8.655338e-001	4.779026e-004
3.333502093750000e-005	8.655340e-001	4.779029e-004
3.333516093750001e-005	8.655362e-001	4.779082e-004
3.333532093750001e-005	8.655387e-001	4.779141e-004
3.347798937500001e-005	8.677740e-001	4.832667e-004
3.362065781250001e-005	8.699920e-001	4.886304e-004
3.376332625000001e-005	8.721927e-001	4.940051e-004
3.390599468750001e-005	8.743761e-001	4.993908e-004
3.404866312500000e-005	8.765422e-001	5.047877e-004
3.419133156250000e-005	8.786910e-001	5.101956e-004
3.433400000000000e-005	8.808225e-001	5.156146e-004
3.433430000000000e-005	8.808270e-001	5.156259e-004
3.433500000000000e-005	8.808374e-001	5.156525e-004
3.433512000000000e-005	8.808392e-001	5.156571e-004
3.433624000000000e-005	8.808559e-001	5.156997e-004
3.447210285714316e-005	8.828643e-001	5.208685e-004
3.460796571428631e-005	8.848580e-001	5.260394e-004
3.474382857142947e-005	8.868367e-001	5.312121e-004
3.487969142857262e-005	8.888006e-001	5.363868e-004
3.501555428571578e-005	8.907495e-001	5.415635e-004
3.515141714285893e-005	8.926837e-001	5.467421e-004
3.528728000000209e-005	8.946029e-001	5.519227e-004
3.528984000000209e-005	8.946388e-001	5.520202e-004
3.529048000000210e-005	8.946478e-001	5.520446e-004
3.529176000000210e-005	8.946658e-001	5.520934e-004
3.529432000000210e-005	8.947017e-001	5.521910e-004
3.529944000000211e-005	8.947735e-001	5.523861e-004
3.530968000000214e-005	8.949171e-001	5.527763e-004
3.533016000000218e-005	8.952039e-001	5.535568e-004
3.537112000000227e-005	8.957760e-001	5.551174e-004
3.545304000000245e-005	8.969147e-001	5.582378e-004
3.561688000000281e-005	8.991697e-001	5.644731e-004
3.594456000000353e-005	9.035900e-001	5.769106e-004
3.659992000000496e-005	9.121152e-001	6.016149e-004
3.759992000000496e-005	9.244491e-001	6.388343e-004
3.859992000000496e-005	9.359481e-001	6.753476e-004
3.959992000000496e-005	9.465233e-001	7.110286e-004
4.059992000000495e-005	9.561645e-001	7.459504e-004
4.159992000000495e-005	9.648620e-001	7.803646e-004
4.259992000000495e-005	9.726448e-001	8.146783e-004
4.344400000000000e-005	9.786395e-001	8.437948e-004
4.344500000000000e-005	9.786462e-001	8.438296e-004
4.344700000000001e-005	9.786591e-001	8.438995e-004
4.345100000000002e-005	9.786849e-001	8.440393e-004
4.345900000000003e-005	9.787364e-001	8.443191e-004
4.347500000000007e-005	9.788393e-001	8.448788e-004
4.350700000000014e-005	9.790440e-001	8.459996e-004
4.357100000000028e-005	9.794498e-001	8.482458e-004
4.369900000000056e-005	9.802465e-001	8.527595e-004
4.395500000000112e-005	9.818122e-001	8.618279e-004
4.395600000000112e-005	9.818182e-001	8.618634e-004
4.395800000000113e-005	9.818301e-001	8.619347e-004
4.396200000000114e-005	9.818539e-001	8.620774e-004
4.397000000000115e-005	9.819015e-001	8.623629e-004
4.398600000000119e-005	9.819964e-001	8.629343e-004
4.401800000000126e-005	9.821854e-001	8.640787e-004
4.408200000000140e-005	9.825595e-001	8.663742e-004
4.421000000000168e-005	9.833008e-001	8.709781e-004
4.421100000000168e-005	9.833065e-001	8.710141e-004
4.421300000000169e-005	9.833179e-001	8.710863e-004
4.421700000000169e-005	9.833407e-001	8.712308e-004
4.422500000000171e-005	9.833863e-001	8.715200e-004
4.424100000000175e-005	9.834774e-001	8.720986e-004
4.427300000000182e-005	9.836584e-001	8.732579e-004
4.433700000000196e-005	9.840186e-001	8.755800e-004
4.433800000000196e-005	9.840242e-001	8.756163e-004
4.434000000000196e-005	9.840354e-001	8.756890e-004
4.434400000000197e-005	9.840577e-001	8.758346e-004
4.435200000000199e-005	9.841024e-001	8.761256e-004
4.436800000000203e-005	9.841914e-001	8.767084e-004
4.440000000000210e-005	9.843689e-001	8.778748e-004
4.440100000000210e-005	9.843744e-001	8.779113e-004
4.440300000000210e-005	9.843855e-001	8.779843e-004
4.440700000000211e-005	9.844075e-001	8.781303e-004
4.441500000000213e-005	9.844517e-001	8.784225e-004
4.442799999999996e-005	9.845234e-001	8.788974e-004
4.442899999999996e-005	9.845288e-001	8.789339e-004
4.443099999999997e-005	9.845398e-001	8.790070e-004
4.443499999999998e-005	9.845618e-001	8.791533e-004
4.443599999999998e-005	9.845673e-001	8.791899e-004
4.443799999999998e-005	9.845783e-001	8.792630e-004
4.443999999999999e-005	9.845893e-001	8.793361e-004
4.444099999999999e-005	9.845948e-001	8.793727e-004
4.444199999999999e-005	9.846002e-001	8.794093e-004
4.444299999999999e-005	9.846057e-001	8.794459e-004
4.444400000000000e-005	9.846112e-001	8.794825e-004
4.444410000000000e-005	9.846118e-001	8.794861e-004
4.444430000000000e-005	9.846129e-001	8.794934e-004
4.444460000000000e-005	9.846146e-001	8.795044e-004
4.444500000000000e-005	9.846167e-001	8.795190e-004
4.444528000000000e-005	9.846182e-001	8.795293e-004
4.444816000000000e-005	9.846341e-001	8.796347e-004
4.445104000000002e-005	9.846498e-001	8.797401e-004
4.445392000000002e-005	9.846656e-001	8.798455e-004
4.445680000000003e-005	9.846814e-001	8.799510e-004
4.445968000000003e-005	9.846971e-001	8.800565e-004
4.446256000000004e-005	9.847129e-001	8.801620e-004
4.446544000000005e-005	9.847286e-001	8.802675e-004
4.448592000000009e-005	9.848402e-001	8.810185e-004
4.453712000000020e-005	9.851179e-001	8.828988e-004
4.456272000000026e-005	9.852557e-001	8.838413e-004
4.457296000000028e-005	9.853106e-001	8.842188e-004
4.459344000000033e-005	9.854201e-001	8.849748e-004
4.463440000000041e-005	9.856374e-001	8.864903e-004
4.471632000000060e-005	9.860660e-001	8.895367e-004
4.488016000000096e-005	9.868987e-001	8.956950e-004
4.520784000000167e-005	9.884658e-001	9.083109e-004
4.586320000000311e-005	9.912564e-001	9.348061e-004
4.686320000000311e-005	9.947838e-001	9.785165e-004
4.786320000000310e-005	9.974138e-001	1.027268e-003
4.886320000000310e-005	9.990593e-001	1.082989e-003
4.986320000000310e-005	9.997190e-001	1.147609e-003
5.086320000000310e-005	9.993920e-001	1.223525e-003
5.186320000000309e-005	9.980788e-001	1.313880e-003
5.286320000000309e-005	9.957806e-001	1.422985e-003
5.386320000000309e-005	9.925749e-001	1.554096e-003
5.455600000000000e-005	9.898962e-001	1.658152e-003
5.455700000000000e-005	9.898919e-001	1.658316e-003
5.455900000000000e-005	9.898830e-001	1.658657e-003
5.456300000000001e-005	9.898652e-001	1.659338e-003
5.457100000000003e-005	9.898294e-001	1.660704e-003
5.458700000000007e-005	9.897578e-001	1.663444e-003
5.461900000000014e-005	9.896135e-001	1.668963e-003
5.468300000000028e-005	9.893214e-001	1.680156e-003
5.481100000000056e-005	9.887218e-001	1.703187e-003
5.506700000000112e-005	9.874948e-001	1.750481e-003
5.506800000000112e-005	9.874899e-001	1.750670e-003
5.507000000000112e-005	9.874800e-001	1.751053e-003
5.507400000000113e-005	9.874603e-001	1.751822e-003
5.508200000000115e-005	9.874206e-001	1.753361e-003
5.519400000000140e-005	9.868566e-001	1.775299e-003
5.532200000000168e-005	9.862013e-001	1.800897e-003
5.532500000000168e-005	9.861857e-001	1.801508e-003
5.532900000000169e-005	9.861649e-001	1.802324e-003
5.544900000000196e-005	9.855334e-001	1.827188e-003
5.545200000000196e-005	9.855174e-001	1.827818e-003
5.546685714285883e-005	9.854383e-001	1.830950e-003
5.548171428571569e-005	9.853588e-001	1.834093e-003
5.549657142857255e-005	9.852792e-001	1.837248e-003
5.551142857142941e-005	9.851994e-001	1.840414e-003
5.552628571428627e-005	9.851193e-001	1.843591e-003
5.554114285714313e-005	9.850390e-001	1.846779e-003
5.555600000000000e-005	9.849585e-001	1.849979e-003
5.555675000000000e-005	9.849545e-001	1.850141e-003
5.555682500000000e-005	9.849541e-001	1.850157e-003
5.555690000000000e-005	9.849536e-001	1.850173e-003
5.555700000000000e-005	9.849531e-001	1.850195e-003
5.555700125000000e-005	9.849531e-001	1.850195e-003
5.555700156250000e-005	9.849531e-001	1.850195e-003
5.555700218750000e-005	9.849531e-001	1.850195e-003
5.555700343750000e-005	9.849531e-001	1.850196e-003
5.555700593750000e-005	9.849531e-001	1.850196e-003
5.555701093750000e-005	9.849530e-001	1.850197e-003
5.555702093750000e-005	9.849530e-001	1.850200e-003
5.555704093750000e-005	9.849529e-001	1.850204e-003
5.555708093750001e-005	9.849527e-001	1.850212e-003
5.555716093750001e-005	9.849523e-001	1.850230e-003
5.556006379464307e-005	9.849365e-001	1.850857e-003
5.556296665178613e-005	9.849207e-001	1.851484e-003
5.556586950892919e-005	9.849050e-001	1.852112e-003
5.556877236607225e-005	9.848892e-001	1.852741e-003
5.557167522321531e-005	9.848734e-001	1.853370e-003
5.557457808035837e-005	9.848576e-001	1.854000e-003
5.557748093750143e-005	9.848418e-001	1.854630e-003
5.563892093750573e-005	9.845046e-001	1.868105e-003
5.572084093751146e-005	9.840479e-001	1.886478e-003
5.588468093752292e-005	9.831101e-001	1.924692e-003
5.598058366073394e-005	9.825592e-001	1.947105e-003
5.607648638394494e-005	9.819986e-001	1.970171e-003
5.617238910715596e-005	9.814282e-001	1.993891e-003
5.626829183036696e-005	9.808480e-001	2.018263e-003
5.636419455357798e-005	9.802581e-001	2.043289e-003
5.646009727678899e-005	9.796583e-001	2.068968e-003
5.655600000000000e-005	9.790487e-001	2.095301e-003
5.655610000000000e-005	9.790481e-001	2.095329e-003
5.655699999999999e-005	9.790424e-001	2.095579e-003
5.655712000000000e-005	9.790416e-001	2.095612e-003
5.655824000000000e-005	9.790344e-001	2.095923e-003
5.669410285714316e-005	9.781522e-001	2.134569e-003
5.682996571428631e-005	9.772535e-001	2.174652e-003
5.696582857142947e-005	9.763386e-001	2.216173e-003
5.710169142857262e-005	9.754073e-001	2.259132e-003
5.723755428571578e-005	9.744596e-001	2.303528e-003
5.737341714285893e-005	9.734955e-001	2.349363e-003
5.750928000000209e-005	9.725152e-001	2.396635e-003
5.751184000000209e-005	9.724964e-001	2.397549e-003
5.751248000000210e-005	9.724918e-001	2.397778e-003
5.751376000000210e-005	9.724824e-001	2.398236e-003
5.751632000000210e-005	9.724637e-001	2.399152e-003
5.752144000000211e-005	9.724262e-001	2.400986e-003
5.753168000000214e-005	9.723512e-001	2.404664e-003
5.755216000000218e-005	9.722007e-001	2.412057e-003
5.759312000000227e-005	9.718981e-001	2.426997e-003
5.767504000000245e-005	9.712869e-001	2.457504e-003
5.783888000000281e-005	9.700403e-001	2.521138e-003
5.816656000000353e-005	9.674511e-001	2.659873e-003
5.882192000000496e-005	9.619377e-001	2.983397e-003
5.982192000000496e-005	9.528192e-001	3.591846e-003
6.082192000000496e-005	9.428424e-001	4.370720e-003
6.182192000000496e-005	9.319351e-001	5.378826e-003
6.282192000000496e-005	9.201080e-001	6.670868e-003
6.382192000000495e-005	9.073729e-001	8.307597e-003
6.482192000000495e-005	8.937766e-001	1.033460e-002
6.566600000000001e-005	8.817675e-001	1.231594e-002
6.566700000000001e-005	8.817528e-001	1.231852e-002
6.566900000000001e-005	8.817232e-001	1.232388e-002
6.567300000000002e-005	8.816639e-001	1.233461e-002
6.568100000000004e-005	8.815452e-001	1.235611e-002
6.569700000000007e-005	8.813077e-001	1.239923e-002
6.572900000000014e-005	8.808320e-001	1.248599e-002
6.579300000000028e-005	8.798770e-001	1.266160e-002
6.592100000000056e-005	8.779539e-001	1.302133e-002
6.617700000000113e-005	8.740827e-001	1.375680e-002
6.617800000000113e-005	8.740675e-001	1.375972e-002
6.618000000000113e-005	8.740370e-001	1.376565e-002
6.618400000000114e-005	8.739759e-001	1.377752e-002
6.619200000000116e-005	8.738537e-001	1.380128e-002
6.620800000000119e-005	8.736092e-001	1.384895e-002
6.624000000000126e-005	8.731192e-001	1.394484e-002
6.630400000000140e-005	8.721361e-001	1.413885e-002
6.643200000000168e-005	8.701635e-001	1.453106e-002
6.643300000000169e-005	8.701481e-001	1.453415e-002
6.643500000000169e-005	8.701171e-001	1.454038e-002
6.643900000000170e-005	8.700551e-001	1.455284e-002
6.644700000000172e-005	8.699312e-001	1.457779e-002
6.646300000000175e-005	8.696831e-001	1.462783e-002
