time	V(faa_in)	V(output)
0.000000000000000e+000	1.097053e-015	1.474701e-004
9.999999960041972e-012	-1.637352e-012	1.474701e-004
1.999999992008394e-011	-5.325082e-012	1.474701e-004
3.999999984016789e-011	-2.595815e-011	1.474701e-004
7.999999968033578e-011	-1.554782e-010	1.474701e-004
1.599999993606716e-010	-8.381122e-010	1.474701e-004
3.199999987213431e-010	-1.072239e-009	1.474701e-004
6.399999974426862e-010	2.750517e-008	1.474701e-004
1.000000000000000e-009	1.121860e-007	1.474701e-004
1.653142861782556e-009	3.118450e-007	1.474701e-004
2.306285723565111e-009	2.351163e-006	1.474701e-004
2.959428585347666e-009	6.230139e-006	1.474701e-004
3.612571447130222e-009	1.194877e-005	1.474701e-004
4.265714308912778e-009	1.950707e-005	1.474701e-004
4.918857170695333e-009	2.890502e-005	1.474701e-004
5.572000032477887e-009	4.014263e-005	1.474701e-004
1.018000006521150e-008	2.092516e-004	1.474701e-004
1.939600013067874e-008	1.003339e-003	1.474701e-004
3.782800026161321e-008	4.002129e-003	1.474701e-004
7.469200052348216e-008	1.232406e-002	1.474701e-004
8.390800058894939e-008	1.474937e-002	1.474701e-004
1.023400007198839e-007	1.994006e-002	1.474701e-004
1.392040009817528e-007	3.035133e-002	1.474701e-004
1.484200010472200e-007	3.295606e-002	1.474701e-004
1.668520011781545e-007	3.816446e-002	1.474701e-004
2.037160014400235e-007	4.857539e-002	1.474701e-004
2.774440019637613e-007	6.936991e-002	1.474701e-004
4.249000030112371e-007	1.107941e-001	1.474701e-004
7.198120051061886e-007	1.925151e-001	1.474701e-004
1.309636009296092e-006	3.488671e-001	1.474701e-004
2.309636009296092e-006	5.884349e-001	1.474701e-004
3.309636009296092e-006	7.837456e-001	1.474703e-004
4.309636009296091e-006	9.264879e-001	1.474708e-004
4.797360674059767e-006	9.716735e-001	1.474713e-004
5.160780668707265e-006	9.900414e-001	1.474720e-004
5.528938447578297e-006	9.972499e-001	1.474731e-004
5.878995645219628e-006	9.928367e-001	1.474746e-004
6.416269232580942e-006	9.726372e-001	1.474779e-004
6.422269232580940e-006	9.722396e-001	1.474779e-004
6.524945056497949e-006	9.649753e-001	1.474788e-004
6.627620880414957e-006	9.569317e-001	1.474797e-004
6.730296704331965e-006	9.481088e-001	1.474808e-004
6.832972528248974e-006	9.385066e-001	1.474820e-004
6.935648352165983e-006	9.281251e-001	1.474833e-004
7.038324176082992e-006	9.169643e-001	1.474847e-004
7.141000000000000e-006	9.050242e-001	1.474863e-004
7.141650000000000e-006	9.049460e-001	1.474863e-004
7.141775000000000e-006	9.049310e-001	1.474863e-004
7.141825000000000e-006	9.049250e-001	1.474863e-004
7.141899999999999e-006	9.049160e-001	1.474863e-004
7.142000000000000e-006	9.049039e-001	1.474863e-004
7.142001250000001e-006	9.049038e-001	1.474863e-004
7.142001562500000e-006	9.049038e-001	1.474863e-004
7.142002187500000e-006	9.049037e-001	1.474863e-004
7.142003437500000e-006	9.049035e-001	1.474863e-004
7.142005937500000e-006	9.049032e-001	1.474863e-004
7.142010937500001e-006	9.049026e-001	1.474863e-004
7.142020937500001e-006	9.049014e-001	1.474863e-004
7.142040937500000e-006	9.048990e-001	1.474863e-004
7.142080937500001e-006	9.048942e-001	1.474863e-004
7.142160937500001e-006	9.048846e-001	1.474863e-004
7.142320937500001e-006	9.048653e-001	1.474863e-004
7.268846517857136e-006	8.888822e-001	1.474883e-004
7.395372098214270e-006	8.718604e-001	1.474907e-004
7.521897678571405e-006	8.537998e-001	1.474934e-004
7.648423258928540e-006	8.347005e-001	1.474963e-004
7.774948839285674e-006	8.145625e-001	1.474996e-004
7.901474419642810e-006	7.933858e-001	1.475032e-004
8.027999999999944e-006	7.711703e-001	1.475070e-004
8.141000000000001e-006	7.504438e-001	1.475109e-004
8.141999999999999e-006	7.502569e-001	1.475109e-004
8.142119999999999e-006	7.502345e-001	1.475109e-004
8.142599999999997e-006	7.501447e-001	1.475110e-004
8.267491428571170e-006	7.260341e-001	1.475157e-004
8.392382857142345e-006	7.011706e-001	1.475209e-004
8.517274285713518e-006	6.755543e-001	1.475267e-004
8.642165714284693e-006	6.491853e-001	1.475330e-004
8.767057142855866e-006	6.220634e-001	1.475399e-004
8.891948571427041e-006	5.941887e-001	1.475473e-004
9.016839999998214e-006	5.655612e-001	1.475553e-004
9.018119999998212e-006	5.652627e-001	1.475554e-004
9.018439999998210e-006	5.651881e-001	1.475554e-004
9.019079999998209e-006	5.650387e-001	1.475554e-004
9.020359999998208e-006	5.647401e-001	1.475555e-004
9.022919999998202e-006	5.641425e-001	1.475557e-004
9.028039999998191e-006	5.629463e-001	1.475560e-004
9.038279999998170e-006	5.605493e-001	1.475568e-004
9.058759999998129e-006	5.557380e-001	1.475582e-004
9.099719999998045e-006	5.460465e-001	1.475611e-004
9.181639999997877e-006	5.263964e-001	1.475673e-004
9.345479999997543e-006	4.860988e-001	1.475812e-004
9.673159999996874e-006	4.020995e-001	1.476157e-004
1.032851999999554e-005	2.257086e-001	1.477162e-004
1.132851999999554e-005	-5.134456e-002	1.479600e-004
1.232851999999554e-005	-3.223715e-001	1.483598e-004
1.332851999999554e-005	-5.792746e-001	1.489178e-004
1.332951999999554e-005	-5.795159e-001	1.489185e-004
1.333151999999554e-005	-5.799806e-001	1.489200e-004
1.333551999999554e-005	-5.809086e-001	1.489231e-004
1.334351999999555e-005	-5.827596e-001	1.489292e-004
1.335951999999555e-005	-5.864421e-001	1.489415e-004
1.339151999999557e-005	-5.937424e-001	1.489664e-004
1.345551999999560e-005	-6.081341e-001	1.490175e-004
1.358351999999566e-005	-6.361317e-001	1.491253e-004
1.383951999999579e-005	-6.906526e-001	1.493515e-004
1.384051999999579e-005	-6.908605e-001	1.493524e-004
1.384251999999579e-005	-6.912693e-001	1.493543e-004
1.384651999999580e-005	-6.920862e-001	1.493581e-004
1.385451999999580e-005	-6.937163e-001	1.493657e-004
1.387051999999581e-005	-6.969630e-001	1.493810e-004
1.390251999999582e-005	-7.034011e-001	1.494119e-004
1.396651999999586e-005	-7.160571e-001	1.494754e-004
1.409451999999592e-005	-7.409545e-001	1.496054e-004
1.409551999999592e-005	-7.411462e-001	1.496065e-004
1.409751999999592e-005	-7.415257e-001	1.496086e-004
1.410151999999592e-005	-7.422836e-001	1.496128e-004
1.410951999999593e-005	-7.437961e-001	1.496212e-004
1.412551999999593e-005	-7.468064e-001	1.496382e-004
1.415751999999595e-005	-7.527692e-001	1.496726e-004
1.422151999999598e-005	-7.645856e-001	1.497421e-004
1.422251999999598e-005	-7.647687e-001	1.497432e-004
1.422451999999598e-005	-7.651328e-001	1.497454e-004
1.422851999999599e-005	-7.658601e-001	1.497498e-004
1.423651999999599e-005	-7.673110e-001	1.497587e-004
1.425251999999600e-005	-7.702045e-001	1.497766e-004
1.425799999999998e-005	-7.711921e-001	1.497827e-004
1.426896000000796e-005	-7.731618e-001	1.497950e-004
1.426996000000796e-005	-7.733412e-001	1.497961e-004
1.427196000000796e-005	-7.736995e-001	1.497984e-004
1.427596000000796e-005	-7.744152e-001	1.498029e-004
1.428200000000000e-005	-7.754947e-001	1.498097e-004
1.428300000000000e-005	-7.756732e-001	1.498108e-004
1.428500000000000e-005	-7.760299e-001	1.498131e-004
1.428600000000000e-005	-7.762082e-001	1.498142e-004
1.428800000000000e-005	-7.765646e-001	1.498165e-004
1.428900000000000e-005	-7.767427e-001	1.498176e-004
1.429000000000000e-005	-7.769207e-001	1.498188e-004
1.429010000000000e-005	-7.769386e-001	1.498189e-004
1.429030000000000e-005	-7.769741e-001	1.498191e-004
1.429060000000000e-005	-7.770275e-001	1.498195e-004
1.429100000000000e-005	-7.770987e-001	1.498199e-004
1.429112000000000e-005	-7.771201e-001	1.498200e-004
1.429160000000000e-005	-7.772055e-001	1.498206e-004
1.429224000000000e-005	-7.773193e-001	1.498213e-004
1.429352000000001e-005	-7.775469e-001	1.498228e-004
1.429608000000001e-005	-7.780016e-001	1.498257e-004
1.430120000000002e-005	-7.789096e-001	1.498315e-004
1.431144000000005e-005	-7.807194e-001	1.498432e-004
1.433192000000009e-005	-7.843145e-001	1.498669e-004
1.437288000000018e-005	-7.914507e-001	1.499145e-004
1.438312000000020e-005	-7.932196e-001	1.499265e-004
1.440872000000026e-005	-7.976083e-001	1.499568e-004
1.441896000000028e-005	-7.993488e-001	1.499690e-004
1.443944000000033e-005	-8.028050e-001	1.499937e-004
1.448040000000042e-005	-8.096147e-001	1.500437e-004
1.456232000000060e-005	-8.228208e-001	1.501469e-004
1.472616000000095e-005	-8.475387e-001	1.503663e-004
1.505384000000167e-005	-8.898864e-001	1.508617e-004
1.570920000000311e-005	-9.567032e-001	1.520005e-004
1.606129511755214e-005	-9.810361e-001	1.527133e-004
1.645670998428774e-005	-9.939590e-001	1.536489e-004
1.692188552316229e-005	-9.933951e-001	1.549142e-004
1.741543845771880e-005	-9.718295e-001	1.565062e-004
1.821573236452116e-005	-8.950319e-001	1.596790e-004
1.921573236452116e-005	-7.422073e-001	1.646545e-004
2.021573236452116e-005	-5.423414e-001	1.706432e-004
2.043100000000000e-005	-4.920418e-001	1.721448e-004
2.086253527095767e-005	-3.833926e-001	1.754352e-004
2.086453527095767e-005	-3.828683e-001	1.754513e-004
2.094545880367800e-005	-3.615698e-001	1.761115e-004
2.102638233639833e-005	-3.401204e-001	1.767832e-004
2.110730586911867e-005	-3.185200e-001	1.774664e-004
2.118822940183900e-005	-2.967687e-001	1.781612e-004
2.126915293455933e-005	-2.748663e-001	1.788674e-004
2.135007646727967e-005	-2.528130e-001	1.795852e-004
2.143100000000000e-005	-2.306086e-001	1.803145e-004
2.143182500000000e-005	-2.303817e-001	1.803220e-004
2.143190000000000e-005	-2.303610e-001	1.803227e-004
2.143200000000000e-005	-2.303335e-001	1.803236e-004
2.143200125000000e-005	-2.303332e-001	1.803236e-004
2.143200156250000e-005	-2.303331e-001	1.803236e-004
2.143200218750000e-005	-2.303329e-001	1.803236e-004
2.143200343750000e-005	-2.303326e-001	1.803237e-004
2.143200593750000e-005	-2.303319e-001	1.803237e-004
2.143202093750000e-005	-2.303278e-001	1.803238e-004
2.143204093750000e-005	-2.303223e-001	1.803240e-004
2.143216093750000e-005	-2.302892e-001	1.803251e-004
2.153476093750016e-005	-2.018777e-001	1.812747e-004
2.163736093750033e-005	-1.733664e-001	1.822424e-004
2.173996093750049e-005	-1.447553e-001	1.832281e-004
2.184256093750065e-005	-1.160444e-001	1.842318e-004
2.194516093750082e-005	-8.723367e-002	1.852535e-004
2.204776093750098e-005	-5.832313e-002	1.862933e-004
2.215036093750115e-005	-2.931279e-002	1.873510e-004
2.219045223214384e-005	-1.797609e-002	1.877724e-004
2.223054352678654e-005	-6.641129e-003	1.881970e-004
2.227063482142923e-005	4.692109e-003	1.886249e-004
2.231072611607192e-005	1.602362e-002	1.890560e-004
2.235081741071461e-005	2.735340e-002	1.894904e-004
2.239090870535731e-005	3.868146e-002	1.899280e-004
2.243100000000000e-005	5.000779e-002	1.903689e-004
2.243200000000000e-005	5.029016e-002	1.903799e-004
2.255688571428493e-005	8.558190e-002	1.917820e-004
2.268177142856986e-005	1.206724e-001	1.932146e-004
2.280665714285479e-005	1.555618e-001	1.946777e-004
2.293154285713972e-005	1.902499e-001	1.961713e-004
2.305642857142465e-005	2.247369e-001	1.976955e-004
2.318131428570958e-005	2.590227e-001	1.992503e-004
2.330619999999451e-005	2.931073e-001	2.008355e-004
2.330683999999450e-005	2.932803e-001	2.008438e-004
2.330811999999449e-005	2.936262e-001	2.008603e-004
2.331067999999448e-005	2.943180e-001	2.008933e-004
2.331579999999445e-005	2.957009e-001	2.009593e-004
2.332603999999438e-005	2.984644e-001	2.010916e-004
2.334651999999425e-005	3.039819e-001	2.013571e-004
2.338747999999399e-005	3.149776e-001	2.018914e-004
2.346939999999348e-005	3.368019e-001	2.029739e-004
2.363323999999245e-005	3.797069e-001	2.051944e-004
2.396091999999040e-005	4.619548e-001	2.098616e-004
2.461627999998628e-005	6.108860e-001	2.200036e-004
2.561627999998628e-005	7.975689e-001	2.372269e-004
2.661627999998628e-005	9.355622e-001	2.562882e-004
2.705105012095705e-005	9.739038e-001	2.653096e-004
2.742209066831451e-005	9.910274e-001	2.735034e-004
2.782058151694339e-005	9.970888e-001	2.826800e-004
2.818080857624735e-005	9.944497e-001	2.912206e-004
2.818180857624735e-005	9.944272e-001	2.912448e-004
2.818380857624734e-005	9.943676e-001	2.912935e-004
2.818780857624734e-005	9.942471e-001	2.913911e-004
2.819580857624733e-005	9.940013e-001	2.915864e-004
2.821180857624731e-005	9.934906e-001	2.919776e-004
2.824380857624727e-005	9.923930e-001	2.927622e-004
2.830780857624720e-005	9.898935e-001	2.943406e-004
2.843580857624704e-005	9.843249e-001	2.975145e-004
2.843680857624704e-005	9.842775e-001	2.975394e-004
2.843880857624704e-005	9.841775e-001	2.975894e-004
2.844280857624703e-005	9.839762e-001	2.976894e-004
2.845080857624703e-005	9.835690e-001	2.978895e-004
2.846680857624701e-005	9.827358e-001	2.982904e-004
2.849880857624697e-005	9.810232e-001	2.990935e-004
2.851600000000008e-005	9.800712e-001	2.995259e-004
2.854561715249378e-005	9.783849e-001	3.002723e-004
2.854661715249378e-005	9.783270e-001	3.002975e-004
2.854861715249378e-005	9.782097e-001	3.003480e-004
2.855261715249377e-005	9.779741e-001	3.004491e-004
2.856061715249376e-005	9.775000e-001	3.006512e-004
2.856400000000002e-005	9.772980e-001	3.007367e-004
2.857076569501253e-005	9.768916e-001	3.009079e-004
2.857176569501253e-005	9.768313e-001	3.009332e-004
2.857376569501253e-005	9.767102e-001	3.009838e-004
2.857600000000001e-005	9.765747e-001	3.010404e-004
2.857700000000000e-005	9.765139e-001	3.010657e-004
2.857800000000000e-005	9.764529e-001	3.010910e-004
2.857900000000000e-005	9.763919e-001	3.011163e-004
2.858000000000000e-005	9.763309e-001	3.011417e-004
2.858010000000000e-005	9.763248e-001	3.011442e-004
2.858030000000000e-005	9.763126e-001	3.011493e-004
2.858060000000000e-005	9.762942e-001	3.011569e-004
2.858100000000000e-005	9.762698e-001	3.011670e-004
2.858104000000000e-005	9.762673e-001	3.011680e-004
2.858112000000000e-005	9.762624e-001	3.011700e-004
2.858160000000000e-005	9.762331e-001	3.011822e-004
2.858352000000000e-005	9.761153e-001	3.012308e-004
2.858608000000001e-005	9.759578e-001	3.012957e-004
2.859120000000002e-005	9.756407e-001	3.014255e-004
2.860144000000004e-005	9.749989e-001	3.016853e-004
2.862192000000009e-005	9.736848e-001	3.022059e-004
2.867312000000020e-005	9.702975e-001	3.035104e-004
2.870896000000028e-005	9.677984e-001	3.044275e-004
2.872944000000032e-005	9.663144e-001	3.049533e-004
2.877040000000041e-005	9.632240e-001	3.060084e-004
2.885232000000059e-005	9.565601e-001	3.081335e-004
2.901616000000095e-005	9.413304e-001	3.124419e-004
2.934384000000167e-005	9.035164e-001	3.212890e-004
2.999920000000311e-005	8.040298e-001	3.397667e-004
3.099920000000310e-005	6.078804e-001	3.695625e-004
3.199920000000310e-005	3.737989e-001	4.009080e-004
3.233400000000001e-005	2.868011e-001	4.118446e-004
3.266440000000619e-005	1.968449e-001	4.229024e-004
3.269079999995051e-005	1.895209e-001	4.237975e-004
3.272599999987626e-005	1.797251e-001	4.249951e-004
3.293719999943079e-005	1.206651e-001	4.322288e-004
3.310359999767367e-005	7.387813e-002	4.379742e-004
3.320599999183308e-005	4.498617e-002	4.415347e-004
3.320699999183308e-005	4.470382e-002	4.415696e-004
3.320899999183309e-005	4.413886e-002	4.416393e-004
3.321299999183309e-005	4.300890e-002	4.417789e-004
3.322099999183311e-005	4.074881e-002	4.420582e-004
3.323699999183315e-005	3.622800e-002	4.426171e-004
3.326899999183322e-005	2.718529e-002	4.437357e-004
3.327200001633316e-005	2.633739e-002	4.438407e-004
3.327600004899974e-005	2.520681e-002	4.439807e-004
3.330199973866731e-005	1.785757e-002	4.448914e-004
3.330599872600341e-005	1.672708e-002	4.450316e-004
3.332701875061563e-005	1.078462e-002	4.457689e-004
3.333400000000000e-005	8.810892e-003	4.460139e-004
3.333410000000000e-005	8.775482e-003	4.460174e-004
3.333430000000000e-005	8.691818e-003	4.460244e-004
3.333460000000000e-005	8.530306e-003	4.460350e-004
3.333500000000000e-005	8.271177e-003	4.460490e-004
3.333504000000000e-005	8.240405e-003	4.460504e-004
3.333512000000000e-005	8.179178e-003	4.460533e-004
3.333624000000000e-005	7.374847e-003	4.460926e-004
3.333752000000001e-005	6.567619e-003	4.461375e-004
3.334008000000001e-005	5.259873e-003	4.462274e-004
3.334520000000002e-005	3.589109e-003	4.464072e-004
3.335544000000005e-005	2.618834e-003	4.467671e-004
3.337592000000009e-005	5.020798e-003	4.474874e-004
3.341688000000018e-005	1.489483e-002	4.489308e-004
3.349880000000036e-005	3.774136e-002	4.518285e-004
3.366264000000072e-005	8.390227e-002	4.576671e-004
3.399032000000144e-005	1.749359e-001	4.695177e-004
3.472100000000001e-005	3.739168e-001	4.963684e-004
3.486385714285715e-005	4.112422e-001	5.017411e-004
3.500671428571429e-005	4.477439e-001	5.071532e-004
3.514957142857143e-005	4.834219e-001	5.126047e-004
3.529242857142858e-005	5.182763e-001	5.180955e-004
3.543528571428572e-005	5.523069e-001	5.236256e-004
3.557814285714286e-005	5.855139e-001	5.291951e-004
3.572100000000000e-005	6.178972e-001	5.348040e-004
3.572111071428571e-005	6.179217e-001	5.348084e-004
3.572122142857143e-005	6.179463e-001	5.348128e-004
3.572133214285714e-005	6.179709e-001	5.348171e-004
3.572144285714286e-005	6.179955e-001	5.348215e-004
3.572155357142858e-005	6.180201e-001	5.348259e-004
3.572166428571429e-005	6.180448e-001	5.348303e-004
3.572177500000001e-005	6.180694e-001	5.348346e-004
3.572182500000000e-005	6.180805e-001	5.348366e-004
3.572190000000000e-005	6.180972e-001	5.348395e-004
3.572200000000000e-005	6.181194e-001	5.348435e-004
3.572200125000000e-005	6.181197e-001	5.348435e-004
3.572200156250000e-005	6.181197e-001	5.348435e-004
3.572200218750000e-005	6.181199e-001	5.348435e-004
3.572200343750000e-005	6.181201e-001	5.348436e-004
3.572200593750000e-005	6.181207e-001	5.348437e-004
3.572201093750000e-005	6.181218e-001	5.348439e-004
3.572202093750000e-005	6.181241e-001	5.348443e-004
3.572204093750000e-005	6.181285e-001	5.348451e-004
3.572216093750001e-005	6.181552e-001	5.348498e-004
3.572232093750001e-005	6.181907e-001	5.348561e-004
3.576908665178741e-005	6.285202e-001	5.367031e-004
3.581585236607482e-005	6.387040e-001	5.385564e-004
3.586261808036222e-005	6.487421e-001	5.404159e-004
3.590938379464962e-005	6.586345e-001	5.422817e-004
3.595614950893702e-005	6.683813e-001	5.441538e-004
3.600291522322442e-005	6.779824e-001	5.460321e-004
3.604968093751182e-005	6.874378e-001	5.479167e-004
3.614558366072442e-005	7.071559e-001	5.517669e-004
3.624148638393701e-005	7.262666e-001	5.556437e-004
3.633738910714961e-005	7.447698e-001	5.595469e-004
3.643329183036221e-005	7.626655e-001	5.634766e-004
3.652919455357481e-005	7.799537e-001	5.674327e-004
3.662509727678740e-005	7.966344e-001	5.714154e-004
3.672100000000000e-005	8.127077e-001	5.754245e-004
3.672130000000000e-005	8.127571e-001	5.754371e-004
3.672200000000000e-005	8.128724e-001	5.754665e-004
3.672212000000000e-005	8.128921e-001	5.754715e-004
3.672260000000000e-005	8.129712e-001	5.754916e-004
3.684703428571456e-005	8.327276e-001	5.807407e-004
3.697146857142912e-005	8.514899e-001	5.860418e-004
3.709590285714367e-005	8.692580e-001	5.913948e-004
3.722033714285823e-005	8.860319e-001	5.967998e-004
3.734477142857279e-005	9.018116e-001	6.022567e-004
3.746920571428735e-005	9.165972e-001	6.077656e-004
3.759364000000191e-005	9.303885e-001	6.133264e-004
3.759620000000191e-005	9.306533e-001	6.134419e-004
3.760132000000192e-005	9.311811e-001	6.136728e-004
3.761156000000195e-005	9.322295e-001	6.141351e-004
3.763204000000199e-005	9.342968e-001	6.150615e-004
3.767300000000208e-005	9.383135e-001	6.169212e-004
3.775492000000226e-005	9.458721e-001	6.206695e-004
3.791876000000262e-005	9.590654e-001	6.282903e-004
3.824644000000334e-005	9.796464e-001	6.439344e-004
3.858788560568505e-005	9.919859e-001	6.609546e-004
3.911011665120426e-005	9.936122e-001	6.885537e-004
3.958236086225962e-005	9.754702e-001	7.158091e-004
4.034862894714946e-005	9.057089e-001	7.664980e-004
4.134862894714946e-005	7.651578e-001	8.433178e-004
4.187000000000000e-005	6.719500e-001	8.887885e-004
4.187100000000001e-005	6.717482e-001	8.888836e-004
4.187300000000001e-005	6.713300e-001	8.890801e-004
4.187700000000002e-005	6.704929e-001	8.894732e-004
4.188500000000004e-005	6.688150e-001	8.902613e-004
4.190100000000007e-005	6.654445e-001	8.918434e-004
4.193300000000014e-005	6.586481e-001	8.950324e-004
4.199700000000028e-005	6.448504e-001	9.015119e-004
4.212500000000056e-005	6.164864e-001	9.148932e-004
4.238100000000112e-005	5.583537e-001	9.424615e-004
4.238200000000113e-005	5.581220e-001	9.425719e-004
